can1  156   [8]  A2 00 00 00 81 FD FF FF
  can1  256   [8]  A2 19 4A FF FA FF 54 D8
  can1  15A   [8]  9A 00 00 00 00 00 00 00
  can1  25A   [8]  9A 1A 00 01 E0 01 00 00
  can1  15A   [8]  9C 00 00 00 00 00 00 00
  can1  25A   [8]  9C 1A CE FF F9 FF 74 1E
  can1  159   [8]  A2 00 00 00 73 01 00 00
  can1  259   [8]  A2 19 B7 FF 00 00 34 5A
  can1  157   [8]  A2 00 00 00 8B 01 00 00
  can1  257   [8]  A2 19 CE FF 06 00 25 D8
  can1  155   [8]  A2 00 00 00 A6 01 00 00
  can1  255   [8]  A2 19 DE FF 03 00 2D F6
  can1  15A   [8]  A2 00 00 00 EE FD FF FF
  can1  25A   [8]  A2 1A D6 FF FD FF 74 1E
  can1  158   [8]  A2 00 00 00 CD FD FF FF
  can1  258   [8]  A2 19 C4 FF FF FF 68 18
  can1  156   [8]  A2 00 00 00 A7 FD FF FF
  can1  256   [8]  A2 19 C8 FE FA FF 54 D8
  can1  158   [8]  71 00 00 00 00 00 00 00
  can1  258   [8]  71 00 00 00 00 00 00 00
  can1  158   [8]  42 00 00 00 00 00 00 00
  can1  258   [8]  42 00 00 00 C8 00 00 00
  can1  158   [8]  9A 00 00 00 00 00 00 00
  can1  258   [8]  9A 19 00 01 DF 01 00 00
  can1  158   [8]  9C 00 00 00 00 00 00 00
  can1  258   [8]  9C 19 D1 FF FA FF 68 18
  can1  156   [8]  9A 00 00 00 00 00 00 00
  can1  256   [8]  9A 19 00 01 DF 01 00 00
  can1  156   [8]  9C 00 00 00 00 00 00 00
  can1  256   [8]  9C 19 72 FF F9 FF 54 D8
  can1  159   [8]  9A 00 00 00 00 00 00 00
  can1  259   [8]  9A 19 00 01 DE 01 00 00
  can1  159   [8]  9C 00 00 00 00 00 00 00
  can1  259   [8]  9C 19 CC FF 00 00 34 5A
  can1  159   [8]  A2 00 00 00 5D 01 00 00
  can1  259   [8]  A2 19 CA FF 00 00 34 5A
  can1  157   [8]  A2 00 00 00 73 01 00 00
  can1  257   [8]  A2 19 E7 FF 01 00 25 D8
  can1  155   [8]  A2 00 00 00 8D 01 00 00
  can1  255   [8]  A2 19 CD FF 06 00 2D F6
  can1  15A   [8]  A2 00 00 00 0E FE FF FF
  can1  25A   [8]  A2 1A DA FF FA FF 74 1E
  can1  158   [8]  A2 00 00 00 EE FD FF FF
  can1  258   [8]  A2 19 CD FF FC FF 68 18
  can1  156   [8]  A2 00 00 00 CB FD FF FF
  can1  256   [8]  A2 19 93 FE FB FF 53 D8
  can1  157   [8]  9A 00 00 00 00 00 00 00
  can1  257   [8]  9A 19 00 01 DF 01 00 00
  can1  157   [8]  9C 00 00 00 00 00 00 00
  can1  257   [8]  9C 19 F0 FF 01 00 25 D8
  can1  155   [8]  9A 00 00 00 00 00 00 00
  can1  255   [8]  9A 19 00 01 DF 01 00 00
  can1  155   [8]  9C 00 00 00 00 00 00 00
  can1  255   [8]  9C 19 D3 FF 03 00 2E F6
  can1  15A   [8]  9A 00 00 00 00 00 00 00
  can1  25A   [8]  9A 1A 00 01 E0 01 00 00
  can1  15A   [8]  9C 00 00 00 00 00 00 00
  can1  25A   [8]  9C 1A DB FF FA FF 74 1E
  can1  158   [8]  9A 00 00 00 00 00 00 00
  can1  258   [8]  9A 19 00 01 DF 01 00 00
  can1  158   [8]  9C 00 00 00 00 00 00 00
  can1  258   [8]  9C 19 C9 FF F9 FF 68 18
  can1  159   [8]  A2 00 00 00 48 01 00 00
  can1  259   [8]  A2 19 C6 FF 03 00 34 5A
  can1  157   [8]  A2 00 00 00 5D 01 00 00
  can1  257   [8]  A2 19 EA FF 06 00 25 D8
  can1  155   [8]  A2 00 00 00 75 01 00 00
  can1  255   [8]  A2 19 D1 FF 03 00 2E F6
  can1  15A   [8]  A2 00 00 00 2C FE FF FF
  can1  25A   [8]  A2 1A D9 FF FC FF 74 1E
  can1  158   [8]  A2 00 00 00 0E FE FF FF
  can1  258   [8]  A2 19 C8 FF FA FF 68 18
  can1  156   [8]  A2 00 00 00 ED FD FF FF
  can1  256   [8]  A2 19 A1 FF F7 FF 53 D8
  can1  156   [8]  9A 00 00 00 00 00 00 00
  can1  256   [8]  9A 19 00 01 E0 01 00 00
  can1  156   [8]  9C 00 00 00 00 00 00 00
  can1  256   [8]  9C 19 62 FF FD FF 53 D8
  can1  159   [8]  A2 00 00 00 34 01 00 00
  can1  259   [8]  A2 19 D5 FF 03 00 34 5A
  can1  157   [8]  A2 00 00 00 48 01 00 00
  can1  257   [8]  A2 19 F3 FF 01 00 25 D8
  can1  155   [8]  A2 00 00 00 5F 01 00 00
  can1  255   [8]  A2 19 CD FF 05 00 2E F6
  can1  15A   [8]  A2 00 00 00 48 FE FF FF
  can1  25A   [8]  A2 1A DD FF FE FF 74 1E
  can1  158   [8]  A2 00 00 00 2C FE FF FF
  can1  258   [8]  A2 19 C7 FF FC FF 68 18
  can1  156   [8]  A2 00 00 00 0D FE FF FF
  can1  256   [8]  A2 19 73 FF FF FF 53 D8
  can1  159   [8]  9A 00 00 00 00 00 00 00
  can1  259   [8]  9A 19 00 01 DE 01 00 00
  can1  159   [8]  9C 00 00 00 00 00 00 00
  can1  259   [8]  9C 19 D0 FF 00 00 34 5A
  can1  159   [8]  A2 00 00 00 22 01 00 00
  can1  259   [8]  A2 19 D5 FF 00 00 34 5A
  can1  157   [8]  A2 00 00 00 34 01 00 00
  can1  257   [8]  A2 19 EC FF 04 00 25 D8
  can1  155   [8]  A2 00 00 00 4A 01 00 00
  can1  255   [8]  A2 19 C3 FF 01 00 2E F6
  can1  15A   [8]  A2 00 00 00 63 FE FF FF
  can1  25A   [8]  A2 1A D0 FF FE FF 73 1E
  can1  158   [8]  A2 00 00 00 48 FE FF FF
  can1  258   [8]  A2 19 AE FF FD FF 68 18
  can1  156   [8]  A2 00 00 00 2B FE FF FF
  can1  256   [8]  A2 19 BC FE F8 FF 53 D8
  can1  157   [8]  9A 00 00 00 00 00 00 00
  can1  257   [8]  9A 19 00 01 DF 01 00 00
  can1  157   [8]  9C 00 00 00 00 00 00 00
  can1  257   [8]  9C 19 FE FF 01 00 25 D8
  can1  155   [8]  9A 00 00 00 00 00 00 00
  can1  255   [8]  9A 19 00 01 DF 01 00 00
  can1  155   [8]  9C 00 00 00 00 00 00 00
  can1  255   [8]  9C 19 CC FF 06 00 2E F6
  can1  159   [8]  A2 00 00 00 10 01 00 00
  can1  259   [8]  A2 19 E0 FF 02 00 34 5A
  can1  157   [8]  A2 00 00 00 22 01 00 00
  can1  257   [8]  A2 19 F2 FF 00 00 25 D8
  can1  155   [8]  A2 00 00 00 36 01 00 00
  can1  255   [8]  A2 19 C0 FF 03 00 2E F6
  can1  15A   [8]  A2 00 00 00 7B FE FF FF
  can1  25A   [8]  A2 1A D8 FF FD FF 73 1E
  can1  158   [8]  A2 00 00 00 63 FE FF FF
  can1  258   [8]  A2 19 D2 FF FC FF 67 18
  can1  156   [8]  A2 00 00 00 47 FE FF FF
  can1  256   [8]  A2 19 9A FE F7 FF 53 D8
  can1  15A   [8]  9A 00 00 00 00 00 00 00
  can1  25A   [8]  9A 1A 00 01 E1 01 00 00
  can1  15A   [8]  9C 00 00 00 00 00 00 00
  can1  25A   [8]  9C 1A DB FF FC FF 73 1E
  can1  159   [8]  A2 00 00 00 00 01 00 00
  can1  259   [8]  A2 19 D5 FF 04 00 34 5A
  can1  157   [8]  A2 00 00 00 10 01 00 00
  can1  257   [8]  A2 19 FA FF 00 00 25 D8
  can1  155   [8]  A2 00 00 00 23 01 00 00
  can1  255   [8]  A2 19 BE FF 04 00 2E F6
  can1  15A   [8]  A2 00 00 00 93 FE FF FF
  can1  25A   [8]  A2 1A E7 FF FD FF 73 1E
  can1  158   [8]  A2 00 00 00 7B FE FF FF
  can1  258   [8]  A2 19 B1 FF 00 00 67 18
  can1  156   [8]  A2 00 00 00 62 FE FF FF
  can1  256   [8]  A2 19 F5 FE FA FF 53 D8
  can1  158   [8]  9A 00 00 00 00 00 00 00
  can1  258   [8]  9A 19 00 01 DF 01 00 00
  can1  158   [8]  9C 00 00 00 00 00 00 00
  can1  258   [8]  9C 19 B7 FF FF FF 67 18
  can1  159   [8]  A2 00 00 00 F0 00 00 00
  can1  259   [8]  A2 19 DC FF 02 00 34 5A
  can1  157   [8]  A2 00 00 00 00 01 00 00
  can1  257   [8]  A2 19 E6 FF 08 00 26 D8
  can1  155   [8]  A2 00 00 00 12 01 00 00
  can1  255   [8]  A2 19 CC FF 01 00 2E F6
  can1  15A   [8]  A2 00 00 00 A9 FE FF FF
  can1  25A   [8]  A2 1A D0 FF F4 FF 73 1E
  can1  158   [8]  A2 00 00 00 93 FE FF FF
  can1  258   [8]  A2 19 D1 FF F9 FF 67 18
  can1  156   [8]  A2 00 00 00 7B FE FF FF
  can1  256   [8]  A2 19 C7 FE FE FF 53 D8
  can1  156   [8]  9A 00 00 00 00 00 00 00
  can1  256   [8]  9A 19 00 01 E0 01 00 00
  can1  156   [8]  9C 00 00 00 00 00 00 00
  can1  256   [8]  9C 19 A2 FF F7 FF 53 D8
  can1  159   [8]  9A 00 00 00 00 00 00 00
  can1  259   [8]  9A 19 00 01 DE 01 00 00
  can1  159   [8]  9C 00 00 00 00 00 00 00
  can1  259   [8]  9C 19 D4 FF 01 00 34 5A
  can1  159   [8]  A2 00 00 00 E2 00 00 00
  can1  259   [8]  A2 19 C0 FF 02 00 34 5A
  can1  157   [8]  A2 00 00 00 F0 00 00 00
  can1  257   [8]  A2 19 F8 FF 03 00 26 D8
  can1  155   [8]  A2 00 00 00 01 01 00 00
  can1  255   [8]  A2 19 BF FF 04 00 2E F6
  can1  15A   [8]  A2 00 00 00 BD FE FF FF
  can1  25A   [8]  A2 1A E0 FF FD FF 73 1E
  can1  158   [8]  A2 00 00 00 A9 FE FF FF
  can1  258   [8]  A2 19 CC FF FC FF 67 18
  can1  156   [8]  A2 00 00 00 92 FE FF FF
  can1  256   [8]  A2 19 FC FE 00 00 52 D8
  can1  157   [8]  9A 00 00 00 00 00 00 00
  can1  257   [8]  9A 19 00 01 DF 01 00 00
  can1  157   [8]  9C 00 00 00 00 00 00 00
  can1  257   [8]  9C 19 EB FF 01 00 26 D8
  can1  159   [8]  A2 00 00 00 D4 00 00 00
  can1  259   [8]  A2 19 E3 FF 00 00 34 5A
  can1  157   [8]  A2 00 00 00 E2 00 00 00
  can1  257   [8]  A2 19 FA FF 02 00 26 D8
  can1  155   [8]  A2 00 00 00 F2 00 00 00
  can1  255   [8]  A2 19 B9 FF 04 00 2E F6
  can1  15A   [8]  A2 00 00 00 D1 FE FF FF
  can1  25A   [8]  A2 1A F0 FF FF FF 73 1E
  can1  158   [8]  A2 00 00 00 BD FE FF FF
  can1  258   [8]  A2 19 D6 FF F9 FF 67 18
  can1  156   [8]  A2 00 00 00 A8 FE FF FF
  can1  256   [8]  A2 19 AF FE 00 00 52 D8
  can1  155   [8]  9A 00 00 00 00 00 00 00
  can1  255   [8]  9A 19 00 01 DF 01 00 00
  can1  155   [8]  9C 00 00 00 00 00 00 00
  can1  255   [8]  9C 19 C1 FF 00 00 2E F6
  can1  159   [8]  A2 00 00 00 C8 00 00 00
  can1  259   [8]  A2 19 E2 FF 00 00 34 5A
  can1  157   [8]  A2 00 00 00 D4 00 00 00
  can1  257   [8]  A2 19 0E 00 00 00 26 D8
  can1  155   [8]  A2 00 00 00 E3 00 00 00
  can1  255   [8]  A2 19 C3 FF 01 00 2E F6
  can1  15A   [8]  A2 00 00 00 E3 FE FF FF
  can1  25A   [8]  A2 1A D5 FF FC FF 73 1E
  can1  158   [8]  A2 00 00 00 D1 FE FF FF
  can1  258   [8]  A2 19 E2 FF F9 FF 67 18
  can1  156   [8]  A2 00 00 00 BD FE FF FF
  can1  256   [8]  A2 19 6C FF F6 FF 52 D8
  can1  15A   [8]  9A 00 00 00 00 00 00 00
  can1  25A   [8]  9A 1A 00 01 E1 01 00 00
  can1  15A   [8]  9C 00 00 00 00 00 00 00
  can1  25A   [8]  9C 1A F2 FF F6 FF 73 1E
  can1  159   [8]  A2 00 00 00 BC 00 00 00
  can1  259   [8]  A2 19 BE FF 03 00 34 5A
  can1  157   [8]  A2 00 00 00 C8 00 00 00
  can1  257   [8]  A2 19 F2 FF 04 00 26 D8
  can1  155   [8]  A2 00 00 00 D6 00 00 00
  can1  255   [8]  A2 19 BB FF 03 00 2F F6
  can1  15A   [8]  A2 00 00 00 F4 FE FF FF
  can1  25A   [8]  A2 1A DF FF FC FF 73 1E
  can1  158   [8]  A2 00 00 00 E3 FE FF FF
  can1  258   [8]  A2 19 D8 FF FC FF 67 18
  can1  156   [8]  A2 00 00 00 D0 FE FF FF
  can1  256   [8]  A2 19 6E FF FD FF 52 D8
  can1  158   [8]  9A 00 00 00 00 00 00 00
  can1  258   [8]  9A 19 00 01 DF 01 00 00
  can1  158   [8]  9C 00 00 00 00 00 00 00
  can1  258   [8]  9C 19 EA FF FA FF 67 18
  can1  156   [8]  9A 00 00 00 00 00 00 00
  can1  256   [8]  9A 19 00 01 E0 01 00 00
  can1  156   [8]  9C 00 00 00 00 00 00 00
  can1  256   [8]  9C 19 7D FF F9 FF 52 D8
  can1  159   [8]  A2 00 00 00 B0 00 00 00
  can1  259   [8]  A2 19 D3 FF 00 00 35 5A
  can1  157   [8]  A2 00 00 00 BC 00 00 00
  can1  257   [8]  A2 19 07 00 00 00 26 D8
  can1  155   [8]  A2 00 00 00 C9 00 00 00
  can1  255   [8]  A2 19 C5 FF 00 00 2F F6
  can1  15A   [8]  A2 00 00 00 04 FF FF FF
  can1  25A   [8]  A2 1A DB FF FF FF 73 1E
  can1  158   [8]  A2 00 00 00 F4 FE FF FF
  can1  258   [8]  A2 19 D8 FF FE FF 66 18
  can1  156   [8]  A2 00 00 00 E2 FE FF FF
  can1  256   [8]  A2 19 A9 FF FD FF 52 D8
  can1  159   [8]  9A 00 00 00 00 00 00 00
  can1  259   [8]  9A 19 00 01 DE 01 00 00
  can1  159   [8]  9C 00 00 00 00 00 00 00
  can1  259   [8]  9C 19 DF FF 00 00 35 5A
  can1  157   [8]  71 00 00 00 00 00 00 00
  can1  257   [8]  71 00 00 00 00 00 00 00
  can1  157   [8]  42 00 00 00 00 00 00 00
  can1  257   [8]  42 00 00 00 C8 00 00 00
  can1  157   [8]  9A 00 00 00 00 00 00 00
  can1  257   [8]  9A 19 00 01 DF 01 00 00
  can1  157   [8]  9C 00 00 00 00 00 00 00
  can1  257   [8]  9C 19 FE FF 05 00 26 D8
  can1  155   [8]  71 00 00 00 00 00 00 00
  can1  255   [8]  71 00 00 00 00 00 00 00
  can1  155   [8]  42 00 00 00 00 00 00 00
  can1  255   [8]  42 00 00 00 10 27 00 00
  can1  155   [8]  9A 00 00 00 00 00 00 00
  can1  255   [8]  9A 19 00 01 E0 01 00 00
  can1  155   [8]  9C 00 00 00 00 00 00 00
  can1  255   [8]  9C 19 C4 FF 01 00 2F F6
  can1  15A   [8]  71 00 00 00 00 00 00 00
  can1  25A   [8]  71 00 00 00 00 00 00 00
  can1  15A   [8]  42 00 00 00 00 00 00 00
  can1  25A   [8]  42 00 00 00 C8 00 00 00
  can1  15A   [8]  9A 00 00 00 00 00 00 00
  can1  25A   [8]  9A 1A 00 01 E0 01 00 00
  can1  15A   [8]  9C 00 00 00 00 00 00 00
  can1  25A   [8]  9C 1A D8 FF FD FF 73 1E
  can1  158   [8]  9A 00 00 00 00 00 00 00
  can1  258   [8]  9A 19 00 01 DF 01 00 00
  can1  158   [8]  9C 00 00 00 00 00 00 00
  can1  258   [8]  9C 19 D7 FF FD FF 66 18
  can1  159   [8]  A2 00 00 00 A6 00 00 00
  can1  259   [8]  A2 19 CB FF 00 00 35 5A
  can1  157   [8]  A2 00 00 00 B0 00 00 00
  can1  257   [8]  A2 19 04 00 01 00 26 D8
  can1  155   [8]  A2 00 00 00 BD 00 00 00
  can1  255   [8]  A2 19 C4 FF 00 00 2F F6
  can1  15A   [8]  A2 00 00 00 13 FF FF FF
  can1  25A   [8]  A2 1A EC FF F7 FF 73 1E
  can1  158   [8]  A2 00 00 00 04 FF FF FF
  can1  258   [8]  A2 19 D7 FF FF FF 66 18
  can1  156   [8]  A2 00 00 00 F4 FE FF FF
  can1  256   [8]  A2 19 8D FF F8 FF 52 D8
  can1  156   [8]  71 00 00 00 00 00 00 00
  can1  256   [8]  71 00 00 00 00 00 00 00
  can1  156   [8]  42 00 00 00 00 00 00 00
  can1  256   [8]  42 00 00 00 C8 00 00 00
  can1  156   [8]  9A 00 00 00 00 00 00 00
  can1  256   [8]  9A 19 00 01 E0 01 00 00
  can1  156   [8]  9C 00 00 00 00 00 00 00
  can1  256   [8]  9C 19 FF FE 00 00 52 D8
  can1  159   [8]  71 00 00 00 00 00 00 00
  can1  259   [8]  71 00 00 00 00 00 00 00
  can1  159   [8]  42 00 00 00 00 00 00 00
  can1  259   [8]  42 00 00 00 C8 00 00 00
  can1  159   [8]  9A 00 00 00 00 00 00 00
  can1  259   [8]  9A 19 00 01 DE 01 00 00
  can1  159   [8]  9C 00 00 00 00 00 00 00
  can1  259   [8]  9C 19 CE FF 00 00 35 5A
  can1  157   [8]  9A 00 00 00 00 00 00 00
  can1  257   [8]  9A 19 00 01 DF 01 00 00
  can1  157   [8]  9C 00 00 00 00 00 00 00
  can1  257   [8]  9C 19 0C 00 03 00 26 D8
  can1  159   [8]  A2 00 00 00 9C 00 00 00
  can1  259   [8]  A2 19 D0 FF 01 00 35 5A
  can1  157   [8]  A2 00 00 00 A6 00 00 00
  can1  257   [8]  A2 19 00 00 02 00 26 D8
  can1  155   [8]  A2 00 00 00 B1 00 00 00
  can1  255   [8]  A2 19 CD FF 00 00 2F F6
  can1  15A   [8]  A2 00 00 00 22 FF FF FF
  can1  25A   [8]  A2 1A E6 FF 00 00 72 1E
  can1  158   [8]  A2 00 00 00 13 FF FF FF
  can1  258   [8]  A2 19 DA FF FF FF 66 18
  can1  156   [8]  A2 00 00 00 04 FF FF FF
  can1  256   [8]  A2 19 68 FF F6 FF 52 D8
  can1  155   [8]  9A 00 00 00 00 00 00 00
  can1  255   [8]  9A 19 00 01 DF 01 00 00
  can1  155   [8]  9C 00 00 00 00 00 00 00
  can1  255   [8]  9C 19 C3 FF 01 00 2F F6
  can1  15A   [8]  9A 00 00 00 00 00 00 00
  can1  25A   [8]  9A 1A 00 01 E1 01 00 00
  can1  15A   [8]  9C 00 00 00 00 00 00 00
  can1  25A   [8]  9C 1A DC FF 00 00 72 1E
  can1  159   [8]  A2 00 00 00 92 00 00 00
  can1  259   [8]  A2 19 C7 FF 03 00 35 5A
  can1  157   [8]  A2 00 00 00 9C 00 00 00
  can1  257   [8]  A2 19 09 00 00 00 26 D8
  can1  155   [8]  A2 00 00 00 A7 00 00 00
  can1  255   [8]  A2 19 C7 FF 04 00 2F F6
  can1  15A   [8]  A2 00 00 00 2F FF FF FF
  can1  25A   [8]  A2 1A D0 FF FF FF 72 1E
  can1  158   [8]  A2 00 00 00 22 FF FF FF
  can1  258   [8]  A2 19 D6 FF FF FF 66 18
  can1  156   [8]  A2 00 00 00 13 FF FF FF
  can1  256   [8]  A2 19 72 FF FD FF 51 D8
  can1  158   [8]  71 00 00 00 00 00 00 00
  can1  258   [8]  71 00 00 00 00 00 00 00
  can1  158   [8]  42 00 00 00 00 00 00 00
  can1  258   [8]  42 00 00 00 C8 00 00 00
  can1  158   [8]  9A 00 00 00 00 00 00 00
  can1  258   [8]  9A 19 00 01 DF 01 00 00
  can1  158   [8]  9C 00 00 00 00 00 00 00
  can1  258   [8]  9C 19 DB FF FE FF 66 18
  can1  156   [8]  9A 00 00 00 00 00 00 00
  can1  256   [8]  9A 19 00 01 E0 01 00 00
  can1  156   [8]  9C 00 00 00 00 00 00 00
  can1  256   [8]  9C 19 2B FF FE FF 51 D8
  can1  159   [8]  9A 00 00 00 00 00 00 00
  can1  259   [8]  9A 19 00 01 DE 01 00 00
  can1  159   [8]  9C 00 00 00 00 00 00 00
  can1  259   [8]  9C 19 B7 FF 04 00 35 5A
  can1  157   [8]  9A 00 00 00 00 00 00 00
  can1  257   [8]  9A 19 00 01 DF 01 00 00
  can1  157   [8]  9C 00 00 00 00 00 00 00
  can1  257   [8]  9C 19 0A 00 00 00 26 D8
  can1  159   [8]  A2 00 00 00 8A 00 00 00
  can1  259   [8]  A2 19 BD FF 04 00 35 5A
  can1  157   [8]  A2 00 00 00 92 00 00 00
  can1  257   [8]  A2 19 0D 00 00 00 26 D8
  can1  155   [8]  A2 00 00 00 9D 00 00 00
  can1  255   [8]  A2 19 B6 FF 01 00 2F F6
  can1  15A   [8]  A2 00 00 00 3C FF FF FF
  can1  25A   [8]  A2 1A D4 FF FF FF 72 1E
  can1  158   [8]  A2 00 00 00 2F FF FF FF
  can1  258   [8]  A2 19 CC FF FF FF 66 18
  can1  156   [8]  A2 00 00 00 21 FF FF FF
  can1  256   [8]  A2 19 FD FE 00 00 51 D8
  can1  155   [8]  9A 00 00 00 00 00 00 00
  can1  255   [8]  9A 19 00 01 E0 01 00 00
  can1  155   [8]  9C 00 00 00 00 00 00 00
  can1  255   [8]  9C 19 BB FF 00 00 2F F6
  can1  15A   [8]  9A 00 00 00 00 00 00 00
  can1  25A   [8]  9A 1A 00 01 E2 01 00 00
  can1  15A   [8]  9C 00 00 00 00 00 00 00
  can1  25A   [8]  9C 1A DE FF F9 FF 72 1E
  can1  159   [8]  A2 00 00 00 81 00 00 00
  can1  259   [8]  A2 19 C4 FF 00 00 35 5A
  can1  157   [8]  A2 00 00 00 8A 00 00 00
  can1  257   [8]  A2 19 14 00 00 00 26 D8
  can1  155   [8]  A2 00 00 00 93 00 00 00
  can1  255   [8]  A2 19 A7 FF 01 00 2F F6
  can1  15A   [8]  A2 00 00 00 47 FF FF FF
  can1  25A   [8]  A2 1A EA FF FE FF 72 1E
  can1  158   [8]  A2 00 00 00 3C FF FF FF
  can1  258   [8]  A2 19 CB FF FF FF 66 18
  can1  156   [8]  A2 00 00 00 2F FF FF FF
  can1  256   [8]  A2 19 42 FF 00 00 51 D8
  can1  158   [8]  9A 00 00 00 00 00 00 00
  can1  258   [8]  9A 19 00 01 E0 01 00 00
  can1  158   [8]  9C 00 00 00 00 00 00 00
  can1  258   [8]  9C 19 C7 FF 00 00 66 18
  can1  159   [8]  A2 00 00 00 79 00 00 00
  can1  259   [8]  A2 19 CF FF 00 00 35 5A
  can1  157   [8]  A2 00 00 00 81 00 00 00
  can1  257   [8]  A2 19 0A 00 00 00 26 D8
  can1  155   [8]  A2 00 00 00 8A 00 00 00
  can1  255   [8]  A2 19 C7 FF 00 00 2F F6
  can1  15A   [8]  A2 00 00 00 52 FF FF FF
  can1  25A   [8]  A2 1A BC FF FD FF 72 1E
  can1  158   [8]  A2 00 00 00 47 FF FF FF
  can1  258   [8]  A2 19 C6 FF 00 00 66 18
  can1  156   [8]  A2 00 00 00 3B FF FF FF
  can1  256   [8]  A2 19 64 FF FE FF 51 D8
  can1  156   [8]  9A 00 00 00 00 00 00 00
  can1  256   [8]  9A 19 00 01 E0 01 00 00
  can1  156   [8]  9C 00 00 00 00 00 00 00
  can1  256   [8]  9C 19 2F FF 00 00 51 D8
  can1  159   [8]  9A 00 00 00 00 00 00 00
  can1  259   [8]  9A 19 00 01 DE 01 00 00
  can1  159   [8]  9C 00 00 00 00 00 00 00
  can1  259   [8]  9C 19 BF FF 00 00 35 5A
  can1  159   [8]  A2 00 00 00 72 00 00 00
  can1  259   [8]  A2 19 C3 FF 00 00 35 5A
  can1  157   [8]  A2 00 00 00 79 00 00 00
  can1  257   [8]  A2 19 1B 00 01 00 26 D8
  can1  155   [8]  A2 00 00 00 82 00 00 00
  can1  255   [8]  A2 19 B4 FF 01 00 2F F6
  can1  15A   [8]  A2 00 00 00 5D FF FF FF
  can1  25A   [8]  A2 1A D5 FF FD FF 72 1E
  can1  158   [8]  A2 00 00 00 52 FF FF FF
  can1  258   [8]  A2 19 BF FF 00 00 66 18
  can1  156   [8]  A2 00 00 00 47 FF FF FF
  can1  256   [8]  A2 19 F6 FE 00 00 51 D8
  can1  157   [8]  9A 00 00 00 00 00 00 00
  can1  257   [8]  9A 19 00 01 DF 01 00 00
  can1  157   [8]  9C 00 00 00 00 00 00 00
  can1  257   [8]  9C 19 15 00 01 00 26 D8
  can1  159   [8]  A2 00 00 00 6B 00 00 00
  can1  259   [8]  A2 19 C8 FF 01 00 35 5A
  can1  157   [8]  A2 00 00 00 72 00 00 00
  can1  257   [8]  A2 19 18 00 01 00 26 D8
  can1  155   [8]  A2 00 00 00 7A 00 00 00
  can1  255   [8]  A2 19 C0 FF 00 00 2F F6
  can1  15A   [8]  A2 00 00 00 67 FF FF FF
  can1  25A   [8]  A2 1A D8 FF 00 00 72 1E
  can1  158   [8]  A2 00 00 00 5D FF FF FF
  can1  258   [8]  A2 19 D3 FF FB FF 66 18
  can1  156   [8]  A2 00 00 00 52 FF FF FF
  can1  256   [8]  A2 19 2F FF 00 00 51 D8
  can1  155   [8]  9A 00 00 00 00 00 00 00
  can1  255   [8]  9A 19 00 01 E0 01 00 00
  can1  155   [8]  9C 00 00 00 00 00 00 00
  can1  255   [8]  9C 19 AC FF 03 00 2F F6
  can1  159   [8]  A2 00 00 00 65 00 00 00
  can1  259   [8]  A2 19 BC FF 00 00 35 5A
  can1  157   [8]  A2 00 00 00 6B 00 00 00
  can1  257   [8]  A2 19 03 00 03 00 26 D8
  can1  155   [8]  A2 00 00 00 73 00 00 00
  can1  255   [8]  A2 19 BA FF 00 00 2F F6
  can1  15A   [8]  A2 00 00 00 70 FF FF FF
  can1  25A   [8]  A2 1A D6 FF 00 00 72 1E
  can1  158   [8]  A2 00 00 00 67 FF FF FF
  can1  258   [8]  A2 19 CB FF 00 00 66 18
  can1  156   [8]  A2 00 00 00 5D FF FF FF
  can1  256   [8]  A2 19 07 FF FE FF 51 D8
  can1  15A   [8]  9A 00 00 00 00 00 00 00
  can1  25A   [8]  9A 1A 00 01 E1 01 00 00
  can1  15A   [8]  9C 00 00 00 00 00 00 00
  can1  25A   [8]  9C 1A D5 FF 00 00 72 1E
  can1  159   [8]  A2 00 00 00 5F 00 00 00
  can1  259   [8]  A2 19 D0 FF 02 00 35 5A
  can1  157   [8]  A2 00 00 00 65 00 00 00
  can1  257   [8]  A2 19 0C 00 00 00 26 D8
  can1  155   [8]  A2 00 00 00 6C 00 00 00
  can1  255   [8]  A2 19 CA FF 00 00 2F F6
  can1  15A   [8]  A2 00 00 00 79 FF FF FF
  can1  25A   [8]  A2 1A DB FF FF FF 72 1E
  can1  158   [8]  A2 00 00 00 70 FF FF FF
  can1  258   [8]  A2 19 C0 FF 00 00 66 18
  can1  156   [8]  A2 00 00 00 66 FF FF FF
  can1  256   [8]  A2 19 60 FF FF FF 51 D8
  can1  158   [8]  9A 00 00 00 00 00 00 00
  can1  258   [8]  9A 19 00 01 E0 01 00 00
  can1  158   [8]  9C 00 00 00 00 00 00 00
  can1  258   [8]  9C 19 C6 FF 00 00 66 18
  can1  156   [8]  9A 00 00 00 00 00 00 00
  can1  256   [8]  9A 19 00 01 E0 01 00 00
  can1  156   [8]  9C 00 00 00 00 00 00 00
  can1  256   [8]  9C 19 C7 FE 01 00 51 D8
  can1  159   [8]  A2 00 00 00 59 00 00 00
  can1  259   [8]  A2 19 A8 FF 00 00 35 5A
  can1  157   [8]  A2 00 00 00 5F 00 00 00
  can1  257   [8]  A2 19 0C 00 02 00 26 D8
  can1  155   [8]  A2 00 00 00 65 00 00 00
  can1  255   [8]  A2 19 C1 FF 03 00 2F F6
  can1  15A   [8]  A2 00 00 00 81 FF FF FF
  can1  25A   [8]  A2 1A C8 FF 00 00 72 1E
  can1  158   [8]  A2 00 00 00 79 FF FF FF
  can1  258   [8]  A2 19 BE FF FE FF 66 18
  can1  156   [8]  A2 00 00 00 70 FF FF FF
  can1  256   [8]  A2 19 5F FF 00 00 51 D8
  can1  159   [8]  9A 00 00 00 00 00 00 00
  can1  259   [8]  9A 19 00 01 DD 01 00 00
  can1  159   [8]  9C 00 00 00 00 00 00 00
  can1  259   [8]  9C 19 B4 FF 00 00 35 5A
  can1  159   [8]  A2 00 00 00 54 00 00 00
  can1  259   [8]  A2 19 C9 FF 00 00 35 5A
  can1  157   [8]  A2 00 00 00 59 00 00 00
  can1  257   [8]  A2 19 01 00 01 00 26 D8
  can1  155   [8]  A2 00 00 00 5F 00 00 00
  can1  255   [8]  A2 19 AE FF 05 00 2F F6
  can1  15A   [8]  A2 00 00 00 88 FF FF FF
  can1  25A   [8]  A2 1A D5 FF 00 00 72 1E
  can1  158   [8]  A2 00 00 00 81 FF FF FF
  can1  258   [8]  A2 19 B8 FF 00 00 66 18
  can1  156   [8]  A2 00 00 00 78 FF FF FF
  can1  256   [8]  A2 19 00 FF 00 00 51 D8
  can1  157   [8]  9A 00 00 00 00 00 00 00
  can1  257   [8]  9A 19 00 01 DE 01 00 00
  can1  157   [8]  9C 00 00 00 00 00 00 00
  can1  257   [8]  9C 19 0D 00 00 00 26 D8
  can1  155   [8]  9A 00 00 00 00 00 00 00
  can1  255   [8]  9A 19 00 01 E0 01 00 00
  can1  155   [8]  9C 00 00 00 00 00 00 00
  can1  255   [8]  9C 19 C0 FF 00 00 2F F6
  can1  15A   [8]  9A 00 00 00 00 00 00 00
  can1  25A   [8]  9A 1A 00 01 E1 01 00 00
  can1  15A   [8]  9C 00 00 00 00 00 00 00
  can1  25A   [8]  9C 1A E2 FF FF FF 72 1E
  can1  158   [8]  9A 00 00 00 00 00 00 00
  can1  258   [8]  9A 19 00 01 DF 01 00 00
  can1  158   [8]  9C 00 00 00 00 00 00 00
  can1  258   [8]  9C 19 C9 FF FD FF 66 18
  can1  159   [8]  A2 00 00 00 4F 00 00 00
  can1  259   [8]  A2 19 B4 FF 00 00 35 5A
  can1  157   [8]  A2 00 00 00 54 00 00 00
  can1  257   [8]  A2 19 09 00 02 00 26 D8
  can1  155   [8]  A2 00 00 00 59 00 00 00
  can1  255   [8]  A2 19 A6 FF 04 00 2F F6
  can1  15A   [8]  A2 00 00 00 90 FF FF FF
  can1  25A   [8]  A2 1A D6 FF 00 00 72 1E
  can1  158   [8]  A2 00 00 00 88 FF FF FF
  can1  258   [8]  A2 19 B4 FF 01 00 66 18
  can1  156   [8]  A2 00 00 00 81 FF FF FF
  can1  256   [8]  A2 19 0B FF 00 00 51 D8
  can1  156   [8]  9A 00 00 00 00 00 00 00
  can1  256   [8]  9A 19 00 01 E0 01 00 00
  can1  156   [8]  9C 00 00 00 00 00 00 00
  can1  256   [8]  9C 19 70 FF FC FF 51 D8
  can1  159   [8]  9A 00 00 00 00 00 00 00
  can1  259   [8]  9A 19 00 01 DE 01 00 00
  can1  159   [8]  9C 00 00 00 00 00 00 00
  can1  259   [8]  9C 19 CF FF 00 00 35 5A
  can1  159   [8]  A2 00 00 00 4A 00 00 00
  can1  259   [8]  A2 19 C0 FF 01 00 35 5A
  can1  157   [8]  A2 00 00 00 4F 00 00 00
  can1  257   [8]  A2 19 0E 00 01 00 26 D8
  can1  155   [8]  A2 00 00 00 54 00 00 00
  can1  255   [8]  A2 19 B6 FF 00 00 2F F6
  can1  15A   [8]  A2 00 00 00 96 FF FF FF
  can1  25A   [8]  A2 1A E1 FF FF FF 72 1E
  can1  158   [8]  A2 00 00 00 90 FF FF FF
  can1  258   [8]  A2 19 C1 FF 00 00 66 18
  can1  156   [8]  A2 00 00 00 88 FF FF FF
  can1  256   [8]  A2 19 C2 FE 00 00 51 D8
  can1  157   [8]  71 00 00 00 00 00 00 00
  can1  257   [8]  71 00 00 00 00 00 00 00
  can1  157   [8]  42 00 00 00 00 00 00 00
  can1  257   [8]  42 00 00 00 C8 00 00 00
  can1  157   [8]  9A 00 00 00 00 00 00 00
  can1  257   [8]  9A 19 00 01 DF 01 00 00
  can1  157   [8]  9C 00 00 00 00 00 00 00
  can1  257   [8]  9C 19 10 00 00 00 26 D8
  can1  155   [8]  71 00 00 00 00 00 00 00
  can1  255   [8]  71 00 00 00 00 00 00 00
  can1  155   [8]  42 00 00 00 00 00 00 00
  can1  255   [8]  42 00 00 00 10 27 00 00
  can1  155   [8]  9A 00 00 00 00 00 00 00
  can1  255   [8]  9A 19 00 01 DF 01 00 00
  can1  155   [8]  9C 00 00 00 00 00 00 00
  can1  255   [8]  9C 19 B8 FF 00 00 2F F6
  can1  15A   [8]  71 00 00 00 00 00 00 00
  can1  25A   [8]  71 00 00 00 00 00 00 00
  can1  15A   [8]  42 00 00 00 00 00 00 00
  can1  25A   [8]  42 00 00 00 C8 00 00 00
  can1  15A   [8]  9A 00 00 00 00 00 00 00
  can1  25A   [8]  9A 1A 00 01 E1 01 00 00
  can1  15A   [8]  9C 00 00 00 00 00 00 00
  can1  25A   [8]  9C 1A DF FF 00 00 72 1E
  can1  158   [8]  9A 00 00 00 00 00 00 00
  can1  258   [8]  9A 19 00 01 DF 01 00 00
  can1  158   [8]  9C 00 00 00 00 00 00 00
  can1  258   [8]  9C 19 C9 FF FD FF 66 18
  can1  159   [8]  A2 00 00 00 45 00 00 00
  can1  259   [8]  A2 19 B2 FF 00 00 35 5A
  can1  157   [8]  A2 00 00 00 4A 00 00 00
  can1  257   [8]  A2 19 19 00 00 00 26 D8
  can1  155   [8]  A2 00 00 00 4F 00 00 00
  can1  255   [8]  A2 19 BC FF 00 00 2F F6
  can1  15A   [8]  A2 00 00 00 9D FF FF FF
  can1  25A   [8]  A2 1A DB FF 00 00 72 1E
  can1  158   [8]  A2 00 00 00 96 FF FF FF
  can1  258   [8]  A2 19 A7 FF 02 00 66 18
  can1  156   [8]  A2 00 00 00 8F FF FF FF
  can1  256   [8]  A2 19 CB FE 00 00 51 D8
  can1  156   [8]  71 00 00 00 00 00 00 00
  can1  256   [8]  71 00 00 00 00 00 00 00
  can1  156   [8]  42 00 00 00 00 00 00 00
  can1  256   [8]  42 00 00 00 C8 00 00 00
  can1  156   [8]  9A 00 00 00 00 00 00 00
  can1  256   [8]  9A 19 00 01 E0 01 00 00
  can1  156   [8]  9C 00 00 00 00 00 00 00
  can1  256   [8]  9C 19 03 FF 00 00 51 D8
  can1  159   [8]  71 00 00 00 00 00 00 00
  can1  259   [8]  71 00 00 00 00 00 00 00
  can1  159   [8]  42 00 00 00 00 00 00 00
  can1  259   [8]  42 00 00 00 C8 00 00 00
  can1  159   [8]  9A 00 00 00 00 00 00 00
  can1  259   [8]  9A 19 00 01 DE 01 00 00
  can1  159   [8]  9C 00 00 00 00 00 00 00
  can1  259   [8]  9C 19 B3 FF 00 00 35 5A
  can1  157   [8]  9A 00 00 00 00 00 00 00
  can1  257   [8]  9A 19 00 01 DF 01 00 00
  can1  157   [8]  9C 00 00 00 00 00 00 00
  can1  257   [8]  9C 19 13 00 00 00 26 D8
  can1  159   [8]  A2 00 00 00 41 00 00 00
  can1  259   [8]  A2 19 D4 FF 02 00 35 5A
  can1  157   [8]  A2 00 00 00 45 00 00 00
  can1  257   [8]  A2 19 15 00 00 00 26 D8
  can1  155   [8]  A2 00 00 00 4A 00 00 00
  can1  255   [8]  A2 19 BF FF 00 00 2F F6
  can1  15A   [8]  A2 00 00 00 A3 FF FF FF
  can1  25A   [8]  A2 1A D9 FF 00 00 72 1E
  can1  158   [8]  A2 00 00 00 9D FF FF FF
  can1  258   [8]  A2 19 C9 FF FE FF 66 18
  can1  156   [8]  A2 00 00 00 96 FF FF FF
  can1  256   [8]  A2 19 52 FF 00 00 51 D8
  can1  155   [8]  9A 00 00 00 00 00 00 00
  can1  255   [8]  9A 19 00 01 DF 01 00 00
  can1  155   [8]  9C 00 00 00 00 00 00 00
  can1  255   [8]  9C 19 BC FF 00 00 2F F6
  can1  15A   [8]  9A 00 00 00 00 00 00 00
  can1  25A   [8]  9A 1A 00 01 E1 01 00 00
  can1  15A   [8]  9C 00 00 00 00 00 00 00
  can1  25A   [8]  9C 1A DA FF 00 00 72 1E
  can1  158   [8]  71 00 00 00 00 00 00 00
  can1  258   [8]  71 00 00 00 00 00 00 00
  can1  158   [8]  42 00 00 00 00 00 00 00
  can1  258   [8]  42 00 00 00 C8 00 00 00
  can1  158   [8]  9A 00 00 00 00 00 00 00
  can1  258   [8]  9A 19 00 01 DF 01 00 00
  can1  158   [8]  9C 00 00 00 00 00 00 00
  can1  258   [8]  9C 19 C0 FF 01 00 66 18
  can1  156   [8]  9A 00 00 00 00 00 00 00
  can1  256   [8]  9A 19 00 01 E0 01 00 00
  can1  156   [8]  9C 00 00 00 00 00 00 00
  can1  256   [8]  9C 19 95 FE 01 00 51 D8
  can1  159   [8]  A2 00 00 00 3D 00 00 00
  can1  259   [8]  A2 19 B0 FF 01 00 35 5A
  can1  157   [8]  A2 00 00 00 41 00 00 00
  can1  257   [8]  A2 19 06 00 01 00 26 D8
  can1  155   [8]  A2 00 00 00 46 00 00 00
  can1  255   [8]  A2 19 BF FF 00 00 2F F6
  can1  15A   [8]  A2 00 00 00 A8 FF FF FF
  can1  25A   [8]  A2 1A D7 FF 00 00 72 1E
  can1  158   [8]  A2 00 00 00 A3 FF FF FF
  can1  258   [8]  A2 19 C3 FF 01 00 66 18
  can1  156   [8]  A2 00 00 00 9D FF FF FF
  can1  256   [8]  A2 19 97 FE 04 00 51 D8
  can1  159   [8]  9A 00 00 00 00 00 00 00
  can1  259   [8]  9A 19 00 01 DE 01 00 00
  can1  159   [8]  9C 00 00 00 00 00 00 00
  can1  259   [8]  9C 19 D3 FF FF FF 35 5A
  can1  159   [8]  A2 00 00 00 3A 00 00 00
  can1  259   [8]  A2 19 B3 FF 00 00 35 5A
  can1  157   [8]  A2 00 00 00 3D 00 00 00
  can1  257   [8]  A2 19 05 00 03 00 27 D8
  can1  155   [8]  A2 00 00 00 42 00 00 00
  can1  255   [8]  A2 19 AE FF 03 00 2F F6
  can1  15A   [8]  A2 00 00 00 AE FF FF FF
  can1  25A   [8]  A2 1A D5 FF 00 00 72 1E
  can1  158   [8]  A2 00 00 00 A8 FF FF FF
  can1  258   [8]  A2 19 CA FF FF FF 66 18
  can1  156   [8]  A2 00 00 00 A3 FF FF FF
  can1  256   [8]  A2 19 78 FF FF FF 51 D8
  can1  157   [8]  9A 00 00 00 00 00 00 00
  can1  257   [8]  9A 19 00 01 DE 01 00 00
  can1  157   [8]  9C 00 00 00 00 00 00 00
  can1  257   [8]  9C 19 0A 00 00 00 27 D8
  can1  159   [8]  A2 00 00 00 36 00 00 00
  can1  259   [8]  A2 19 B5 FF 01 00 35 5A
  can1  157   [8]  A2 00 00 00 3A 00 00 00
  can1  257   [8]  A2 19 04 00 00 00 27 D8
  can1  155   [8]  A2 00 00 00 3E 00 00 00
  can1  255   [8]  A2 19 B7 FF 01 00 30 F6
  can1  15A   [8]  A2 00 00 00 B3 FF FF FF
  can1  25A   [8]  A2 1A D9 FF FD FF 72 1E
  can1  158   [8]  A2 00 00 00 AE FF FF FF
  can1  258   [8]  A2 19 C2 FF FF FF 66 18
  can1  156   [8]  A2 00 00 00 A8 FF FF FF
  can1  256   [8]  A2 19 85 FF FD FF 51 D8
  can1  155   [8]  9A 00 00 00 00 00 00 00
  can1  255   [8]  9A 19 00 01 DF 01 00 00
  can1  155   [8]  9C 00 00 00 00 00 00 00
  can1  255   [8]  9C 19 AF FF 01 00 30 F6
  can1  159   [8]  A2 00 00 00 33 00 00 00
  can1  259   [8]  A2 19 C3 FF 00 00 35 5A
  can1  157   [8]  A2 00 00 00 36 00 00 00
  can1  257   [8]  A2 19 0F 00 00 00 27 D8
  can1  155   [8]  A2 00 00 00 3A 00 00 00
  can1  255   [8]  A2 19 B7 FF 00 00 30 F6
  can1  15A   [8]  A2 00 00 00 B7 FF FF FF
  can1  25A   [8]  A2 1A E0 FF FF FF 72 1E
  can1  158   [8]  A2 00 00 00 B3 FF FF FF
  can1  258   [8]  A2 19 DC FF FD FF 66 18
  can1  156   [8]  A2 00 00 00 AE FF FF FF
  can1  256   [8]  A2 19 F7 FE 00 00 51 D8
  can1  15A   [8]  9A 00 00 00 00 00 00 00
  can1  25A   [8]  9A 1A 00 01 E1 01 00 00
  can1  15A   [8]  9C 00 00 00 00 00 00 00
  can1  25A   [8]  9C 1A E0 FF FF FF 72 1E
  can1  159   [8]  A2 00 00 00 30 00 00 00
  can1  259   [8]  A2 19 C1 FF 00 00 35 5A
  can1  157   [8]  A2 00 00 00 33 00 00 00
  can1  257   [8]  A2 19 0E 00 00 00 27 D8
  can1  155   [8]  A2 00 00 00 36 00 00 00
  can1  255   [8]  A2 19 B2 FF 02 00 30 F6
  can1  15A   [8]  A2 00 00 00 BC FF FF FF
  can1  25A   [8]  A2 1A E8 FF 00 00 72 1E
  can1  158   [8]  A2 00 00 00 B7 FF FF FF
  can1  258   [8]  A2 19 C8 FF FF FF 65 18
  can1  156   [8]  A2 00 00 00 B2 FF FF FF
  can1  256   [8]  A2 19 D5 FE 00 00 51 D8
  can1  158   [8]  9A 00 00 00 00 00 00 00
  can1  258   [8]  9A 19 00 01 DF 01 00 00
  can1  158   [8]  9C 00 00 00 00 00 00 00
  can1  258   [8]  9C 19 C8 FF 00 00 65 18
  can1  156   [8]  9A 00 00 00 00 00 00 00
  can1  256   [8]  9A 19 00 01 E0 01 00 00
  can1  156   [8]  9C 00 00 00 00 00 00 00
  can1  256   [8]  9C 19 64 FF FC FF 51 D8
  can1  159   [8]  A2 00 00 00 2D 00 00 00
  can1  259   [8]  A2 19 B8 FF 00 00 35 5A
  can1  157   [8]  A2 00 00 00 30 00 00 00
  can1  257   [8]  A2 19 14 00 00 00 27 D8
  can1  155   [8]  A2 00 00 00 33 00 00 00
  can1  255   [8]  A2 19 B1 FF 01 00 30 F6
  can1  15A   [8]  A2 00 00 00 C0 FF FF FF
  can1  25A   [8]  A2 1A EA FF 00 00 72 1E
  can1  158   [8]  A2 00 00 00 BC FF FF FF
  can1  258   [8]  A2 19 B5 FF 04 00 65 18
  can1  156   [8]  A2 00 00 00 B7 FF FF FF
  can1  256   [8]  A2 19 2F FF FB FF 51 D8
  can1  157   [8]  9A 00 00 00 00 00 00 00
  can1  257   [8]  9A 19 00 01 DE 01 00 00
  can1  157   [8]  9C 00 00 00 00 00 00 00
  can1  257   [8]  9C 19 0D 00 00 00 27 D8
  can1  159   [8]  A2 00 00 00 2A 00 00 00
  can1  259   [8]  A2 19 B3 FF 00 00 35 5A
  can1  157   [8]  A2 00 00 00 2D 00 00 00
  can1  257   [8]  A2 19 04 00 03 00 27 D8
  can1  155   [8]  A2 00 00 00 30 00 00 00
  can1  255   [8]  A2 19 BF FF 00 00 30 F6
  can1  15A   [8]  A2 00 00 00 C4 FF FF FF
  can1  25A   [8]  A2 1A D4 FF FF FF 72 1E
  can1  158   [8]  A2 00 00 00 C0 FF FF FF
  can1  258   [8]  A2 19 C7 FF FF FF 65 18
  can1  156   [8]  A2 00 00 00 BC FF FF FF
  can1  256   [8]  A2 19 56 FF 00 00 51 D8
  can1  155   [8]  9A 00 00 00 00 00 00 00
  can1  255   [8]  9A 19 00 01 E0 01 00 00
  can1  155   [8]  9C 00 00 00 00 00 00 00
  can1  255   [8]  9C 19 BB FF 01 00 30 F6
  can1  159   [8]  A2 00 00 00 28 00 00 00
  can1  259   [8]  A2 19 B5 FF 00 00 36 5A
  can1  157   [8]  A2 00 00 00 2A 00 00 00
  can1  257   [8]  A2 19 0A 00 FE FF 27 D8
  can1  155   [8]  A2 00 00 00 2D 00 00 00
  can1  255   [8]  A2 19 A6 FF 01 00 30 F6
  can1  15A   [8]  A2 00 00 00 C7 FF FF FF
  can1  25A   [8]  A2 1A D5 FF 00 00 71 1E
  can1  158   [8]  A2 00 00 00 C4 FF FF FF
  can1  258   [8]  A2 19 C3 FF 00 00 65 18
  can1  156   [8]  A2 00 00 00 C0 FF FF FF
  can1  256   [8]  A2 19 51 FF 00 00 51 D8
  can1  15A   [8]  9A 00 00 00 00 00 00 00
  can1  25A   [8]  9A 1A 00 01 E1 01 00 00
  can1  15A   [8]  9C 00 00 00 00 00 00 00
  can1  25A   [8]  9C 1A E9 FF FE FF 71 1E
  can1  159   [8]  A2 00 00 00 25 00 00 00
  can1  259   [8]  A2 19 CC FF 01 00 36 5A
  can1  157   [8]  A2 00 00 00 28 00 00 00
  can1  257   [8]  A2 19 14 00 00 00 27 D8
  can1  155   [8]  A2 00 00 00 2A 00 00 00
  can1  255   [8]  A2 19 AB FF 00 00 30 F6
  can1  15A   [8]  A2 00 00 00 CB FF FF FF
  can1  25A   [8]  A2 1A E4 FF FC FF 71 1E
  can1  158   [8]  A2 00 00 00 C7 FF FF FF
  can1  258   [8]  A2 19 C1 FF FF FF 65 18
  can1  156   [8]  A2 00 00 00 C4 FF FF FF
  can1  256   [8]  A2 19 D1 FE 00 00 51 D8
  can1  159   [8]  9A 00 00 00 00 00 00 00
  can1  259   [8]  9A 19 00 01 DE 01 00 00
  can1  159   [8]  9C 00 00 00 00 00 00 00
  can1  259   [8]  9C 19 C1 FF 00 00 36 5A
  can1  158   [8]  9A 00 00 00 00 00 00 00
  can1  258   [8]  9A 19 00 01 DF 01 00 00
  can1  158   [8]  9C 00 00 00 00 00 00 00
  can1  258   [8]  9C 19 CA FF FE FF 65 18
  can1  159   [8]  A2 00 00 00 00 00 00 00
  can1  259   [8]  A2 19 C6 FF 01 00 36 5A
  can1  157   [8]  A2 00 00 00 25 00 00 00
  can1  257   [8]  A2 19 0D 00 00 00 27 D8
  can1  155   [8]  A2 00 00 00 28 00 00 00
  can1  255   [8]  A2 19 A5 FF 00 00 30 F6
  can1  15A   [8]  A2 00 00 00 CE FF FF FF
  can1  25A   [8]  A2 1A EC FF FD FF 71 1E
  can1  158   [8]  A2 00 00 00 CB FF FF FF
  can1  258   [8]  A2 19 C9 FF 00 00 65 18
  can1  156   [8]  A2 00 00 00 C7 FF FF FF
  can1  256   [8]  A2 19 6E FF FD FF 51 D8
  can1  156   [8]  9A 00 00 00 00 00 00 00
  can1  256   [8]  9A 19 00 01 E0 01 00 00
  can1  156   [8]  9C 00 00 00 00 00 00 00
  can1  256   [8]  9C 19 18 FF 00 00 51 D8
  can1  157   [8]  A2 00 00 00 00 00 00 00
  can1  257   [8]  A2 19 0D 00 00 00 27 D8
  can1  155   [8]  A2 00 00 00 25 00 00 00
  can1  255   [8]  A2 19 B4 FF 00 00 30 F6
  can1  15A   [8]  A2 00 00 00 D1 FF FF FF
  can1  25A   [8]  A2 1A D8 FF 00 00 71 1E
  can1  158   [8]  A2 00 00 00 CE FF FF FF
  can1  258   [8]  A2 19 B6 FF FF FF 65 18
  can1  156   [8]  A2 00 00 00 CB FF FF FF
  can1  256   [8]  A2 19 16 FF 00 00 51 D8
  can1  159   [8]  9A 00 00 00 00 00 00 00
  can1  259   [8]  9A 19 00 01 DE 01 00 00
  can1  159   [8]  9C 00 00 00 00 00 00 00
  can1  259   [8]  9C 19 C2 FF 00 00 36 5A
  can1  155   [8]  A2 00 00 00 00 00 00 00
  can1  255   [8]  A2 19 B3 FF 00 00 30 F6
  can1  15A   [8]  A2 00 00 00 D4 FF FF FF
  can1  25A   [8]  A2 1A E3 FF FD FF 71 1E
  can1  158   [8]  A2 00 00 00 D1 FF FF FF
  can1  258   [8]  A2 19 C2 FF 00 00 65 18
  can1  156   [8]  A2 00 00 00 CE FF FF FF
  can1  256   [8]  A2 19 53 FF FC FF 51 D8
  can1  157   [8]  9A 00 00 00 00 00 00 00
  can1  257   [8]  9A 19 00 01 DF 01 00 00
  can1  157   [8]  9C 00 00 00 00 00 00 00
  can1  257   [8]  9C 19 0B 00 FF FF 27 D8
  can1  15A   [8]  A2 00 00 00 D7 FF FF FF
  can1  25A   [8]  A2 1A D9 FF 02 00 71 1E
  can1  158   [8]  A2 00 00 00 D4 FF FF FF
  can1  258   [8]  A2 19 BD FF 00 00 65 18
  can1  156   [8]  A2 00 00 00 D1 FF FF FF
  can1  256   [8]  A2 19 E1 FE 00 00 51 D8
  can1  155   [8]  9A 00 00 00 00 00 00 00
  can1  255   [8]  9A 19 00 01 DF 01 00 00
  can1  155   [8]  9C 00 00 00 00 00 00 00
  can1  255   [8]  9C 19 AF FF 00 00 30 F6
  can1  15A   [8]  9A 00 00 00 00 00 00 00
  can1  25A   [8]  9A 1A 00 01 E1 01 00 00
  can1  15A   [8]  9C 00 00 00 00 00 00 00
  can1  25A   [8]  9C 1A DE FF 00 00 71 1E
  can1  158   [8]  9A 00 00 00 00 00 00 00
  can1  258   [8]  9A 19 00 01 DF 01 00 00
  can1  158   [8]  9C 00 00 00 00 00 00 00
  can1  258   [8]  9C 19 B8 FF 00 00 65 18
  can1  15A   [8]  A2 00 00 00 D9 FF FF FF
  can1  25A   [8]  A2 1A F4 FF FE FF 71 1E
  can1  158   [8]  A2 00 00 00 D7 FF FF FF
  can1  258   [8]  A2 19 C1 FF 01 00 65 18
  can1  156   [8]  A2 00 00 00 D4 FF FF FF
  can1  256   [8]  A2 19 18 FF 00 00 51 D8
  can1  156   [8]  9A 00 00 00 00 00 00 00
  can1  256   [8]  9A 19 00 01 E0 01 00 00
  can1  156   [8]  9C 00 00 00 00 00 00 00
  can1  256   [8]  9C 19 68 FF 00 00 51 D8
  can1  15A   [8]  A2 00 00 00 DB FF FF FF
  can1  25A   [8]  A2 1A E1 FF 00 00 71 1E
  can1  158   [8]  A2 00 00 00 D9 FF FF FF
  can1  258   [8]  A2 19 CD FF FF FF 65 18
  can1  156   [8]  A2 00 00 00 D6 FF FF FF
  can1  256   [8]  A2 19 5D FF FF FF 51 D8
  can1  159   [8]  9A 00 00 00 00 00 00 00
  can1  259   [8]  9A 19 00 01 DE 01 00 00
  can1  159   [8]  9C 00 00 00 00 00 00 00
  can1  259   [8]  9C 19 AF FF 01 00 36 5A
  can1  157   [8]  71 00 00 00 00 00 00 00
  can1  257   [8]  71 00 00 00 00 00 00 00
  can1  157   [8]  42 00 00 00 00 00 00 00
  can1  257   [8]  42 00 00 00 C8 00 00 00
  can1  157   [8]  9A 00 00 00 00 00 00 00
  can1  257   [8]  9A 19 00 01 DF 01 00 00
  can1  157   [8]  9C 00 00 00 00 00 00 00
  can1  257   [8]  9C 19 20 00 00 00 27 D8
  can1  155   [8]  71 00 00 00 00 00 00 00
  can1  255   [8]  71 00 00 00 00 00 00 00
  can1  155   [8]  42 00 00 00 00 00 00 00
  can1  255   [8]  42 00 00 00 10 27 00 00
  can1  155   [8]  9A 00 00 00 00 00 00 00
  can1  255   [8]  9A 19 00 01 E0 01 00 00
  can1  155   [8]  9C 00 00 00 00 00 00 00
  can1  255   [8]  9C 19 B6 FF 00 00 30 F6
  can1  15A   [8]  71 00 00 00 00 00 00 00
  can1  25A   [8]  71 00 00 00 00 00 00 00
  can1  15A   [8]  42 00 00 00 00 00 00 00
  can1  25A   [8]  42 00 00 00 C8 00 00 00
  can1  15A   [8]  9A 00 00 00 00 00 00 00
  can1  25A   [8]  9A 1A 00 01 E1 01 00 00
  can1  15A   [8]  9C 00 00 00 00 00 00 00
  can1  25A   [8]  9C 1A D7 FF 00 00 71 1E
  can1  158   [8]  9A 00 00 00 00 00 00 00
  can1  258   [8]  9A 19 00 01 DF 01 00 00
  can1  158   [8]  9C 00 00 00 00 00 00 00
  can1  258   [8]  9C 19 CC FF 00 00 65 18
  can1  15A   [8]  A2 00 00 00 00 00 00 00
  can1  25A   [8]  A2 1A DC FF 00 00 71 1E
  can1  158   [8]  A2 00 00 00 DB FF FF FF
  can1  258   [8]  A2 19 CB FF 00 00 65 18
  can1  156   [8]  A2 00 00 00 D9 FF FF FF
  can1  256   [8]  A2 19 2B FF 00 00 51 D8
  can1  156   [8]  71 00 00 00 00 00 00 00
  can1  256   [8]  71 00 00 00 00 00 00 00
  can1  156   [8]  42 00 00 00 00 00 00 00
  can1  256   [8]  42 00 00 00 C8 00 00 00
  can1  156   [8]  9A 00 00 00 00 00 00 00
  can1  256   [8]  9A 19 00 01 E0 01 00 00
  can1  156   [8]  9C 00 00 00 00 00 00 00
  can1  256   [8]  9C 19 FF FE 01 00 51 D8
  can1  159   [8]  71 00 00 00 00 00 00 00
  can1  259   [8]  71 00 00 00 00 00 00 00
  can1  159   [8]  42 00 00 00 00 00 00 00
  can1  259   [8]  42 00 00 00 C8 00 00 00
  can1  159   [8]  9A 00 00 00 00 00 00 00
  can1  259   [8]  9A 19 00 01 DE 01 00 00
  can1  159   [8]  9C 00 00 00 00 00 00 00
  can1  259   [8]  9C 19 A6 FF 00 00 36 5A
  can1  157   [8]  9A 00 00 00 00 00 00 00
  can1  257   [8]  9A 19 00 01 DF 01 00 00
  can1  157   [8]  9C 00 00 00 00 00 00 00
  can1  257   [8]  9C 19 08 00 01 00 27 D8
  can1  155   [8]  9A 00 00 00 00 00 00 00
  can1  255   [8]  9A 19 00 01 DF 01 00 00
  can1  155   [8]  9C 00 00 00 00 00 00 00
  can1  255   [8]  9C 19 C0 FF 01 00 30 F6
  can1  158   [8]  A2 00 00 00 00 00 00 00
  can1  258   [8]  A2 19 C6 FF 00 00 65 18
  can1  156   [8]  A2 00 00 00 DB FF FF FF
  can1  256   [8]  A2 19 23 FF 00 00 51 D8
  can1  15A   [8]  9A 00 00 00 00 00 00 00
  can1  25A   [8]  9A 1A 00 01 E0 01 00 00
  can1  15A   [8]  9C 00 00 00 00 00 00 00
  can1  25A   [8]  9C 1A EF FF FE FF 71 1E
  can1  156   [8]  A2 00 00 00 00 00 00 00
  can1  256   [8]  A2 19 20 FF 00 00 51 D8
  can1  158   [8]  71 00 00 00 00 00 00 00
  can1  258   [8]  71 00 00 00 00 00 00 00
  can1  158   [8]  42 00 00 00 00 00 00 00
  can1  258   [8]  42 00 00 00 C8 00 00 00
  can1  158   [8]  9A 00 00 00 00 00 00 00
  can1  258   [8]  9A 19 00 01 DF 01 00 00
  can1  158   [8]  9C 00 00 00 00 00 00 00
  can1  258   [8]  9C 19 CF FF 00 00 65 18
  can1  156   [8]  9A 00 00 00 00 00 00 00
  can1  256   [8]  9A 19 00 01 E0 01 00 00
  can1  156   [8]  9C 00 00 00 00 00 00 00
  can1  256   [8]  9C 19 4C FF 00 00 51 D8
  can1  159   [8]  9A 00 00 00 00 00 00 00
  can1  259   [8]  9A 19 00 01 DE 01 00 00
  can1  159   [8]  9C 00 00 00 00 00 00 00
  can1  259   [8]  9C 19 BC FF 00 00 36 5A
  can1  157   [8]  9A 00 00 00 00 00 00 00
  can1  257   [8]  9A 19 00 01 DF 01 00 00
  can1  157   [8]  9C 00 00 00 00 00 00 00
  can1  257   [8]  9C 19 08 00 00 00 27 D8
  can1  155   [8]  9A 00 00 00 00 00 00 00
  can1  255   [8]  9A 19 00 01 DF 01 00 00
  can1  155   [8]  9C 00 00 00 00 00 00 00
  can1  255   [8]  9C 19 B7 FF 00 00 30 F6
  can1  15A   [8]  9A 00 00 00 00 00 00 00
  can1  25A   [8]  9A 1A 00 01 E1 01 00 00
  can1  15A   [8]  9C 00 00 00 00 00 00 00
  can1  25A   [8]  9C 1A F0 FF 00 00 71 1E
  can1  158   [8]  9A 00 00 00 00 00 00 00
  can1  258   [8]  9A 19 00 01 DF 01 00 00
  can1  158   [8]  9C 00 00 00 00 00 00 00
  can1  258   [8]  9C 19 C8 FF 00 00 65 18
  can1  156   [8]  9A 00 00 00 00 00 00 00
  can1  256   [8]  9A 19 00 01 E0 01 00 00
  can1  156   [8]  9C 00 00 00 00 00 00 00
  can1  256   [8]  9C 19 35 FF 00 00 51 D8
  can1  159   [8]  9A 00 00 00 00 00 00 00
  can1  259   [8]  9A 19 00 01 DE 01 00 00
  can1  159   [8]  9C 00 00 00 00 00 00 00
  can1  259   [8]  9C 19 B6 FF 00 00 36 5A
  can1  157   [8]  9A 00 00 00 00 00 00 00
  can1  257   [8]  9A 19 00 01 DF 01 00 00
  can1  157   [8]  9C 00 00 00 00 00 00 00
  can1  257   [8]  9C 19 0A 00 01 00 27 D8
  can1  155   [8]  9A 00 00 00 00 00 00 00
  can1  255   [8]  9A 19 00 01 DF 01 00 00
  can1  155   [8]  9C 00 00 00 00 00 00 00
  can1  255   [8]  9C 19 B9 FF 01 00 30 F6
  can1  15A   [8]  9A 00 00 00 00 00 00 00
  can1  25A   [8]  9A 1A 00 01 E1 01 00 00
  can1  15A   [8]  9C 00 00 00 00 00 00 00
  can1  25A   [8]  9C 1A D4 FF 00 00 71 1E
  can1  158   [8]  9A 00 00 00 00 00 00 00
  can1  258   [8]  9A 19 00 01 DF 01 00 00
  can1  158   [8]  9C 00 00 00 00 00 00 00
  can1  258   [8]  9C 19 CA FF 00 00 65 18
  can1  156   [8]  9A 00 00 00 00 00 00 00
  can1  256   [8]  9A 19 00 01 E0 01 00 00
  can1  156   [8]  9C 00 00 00 00 00 00 00
  can1  256   [8]  9C 19 42 FF FF FF 51 D8
  can1  159   [8]  9A 00 00 00 00 00 00 00
  can1  259   [8]  9A 19 00 01 DE 01 00 00
  can1  159   [8]  9C 00 00 00 00 00 00 00
  can1  259   [8]  9C 19 B8 FF 00 00 36 5A
  can1  157   [8]  9A 00 00 00 00 00 00 00
  can1  257   [8]  9A 19 00 01 DE 01 00 00
  can1  157   [8]  9C 00 00 00 00 00 00 00
  can1  257   [8]  9C 19 00 00 FD FF 27 D8
  can1  155   [8]  9A 00 00 00 00 00 00 00
  can1  255   [8]  9A 19 00 01 DF 01 00 00
  can1  155   [8]  9C 00 00 00 00 00 00 00
  can1  255   [8]  9C 19 AD FF 00 00 30 F6
  can1  15A   [8]  9A 00 00 00 00 00 00 00
  can1  25A   [8]  9A 1A 00 01 E1 01 00 00
  can1  15A   [8]  9C 00 00 00 00 00 00 00
  can1  25A   [8]  9C 1A E1 FF 00 00 71 1E
  can1  158   [8]  9A 00 00 00 00 00 00 00
  can1  258   [8]  9A 19 00 01 DF 01 00 00
  can1  158   [8]  9C 00 00 00 00 00 00 00
  can1  258   [8]  9C 19 C8 FF 00 00 65 18
  can1  156   [8]  9A 00 00 00 00 00 00 00
  can1  256   [8]  9A 19 00 01 E0 01 00 00
  can1  156   [8]  9C 00 00 00 00 00 00 00
  can1  256   [8]  9C 19 1E FF 00 00 51 D8
  can1  159   [8]  9A 00 00 00 00 00 00 00
  can1  259   [8]  9A 19 00 01 DF 01 00 00
  can1  159   [8]  9C 00 00 00 00 00 00 00
  can1  259   [8]  9C 19 B4 FF 00 00 36 5A
  can1  157   [8]  71 00 00 00 00 00 00 00
  can1  257   [8]  71 00 00 00 00 00 00 00
  can1  157   [8]  42 00 00 00 00 00 00 00
  can1  257   [8]  42 00 00 00 C8 00 00 00
  can1  157   [8]  9A 00 00 00 00 00 00 00
  can1  257   [8]  9A 19 00 01 DF 01 00 00
  can1  157   [8]  9C 00 00 00 00 00 00 00
  can1  257   [8]  9C 19 14 00 00 00 27 D8
  can1  155   [8]  71 00 00 00 00 00 00 00
  can1  255   [8]  71 00 00 00 00 00 00 00
  can1  155   [8]  42 00 00 00 00 00 00 00
  can1  255   [8]  42 00 00 00 10 27 00 00
  can1  155   [8]  9A 00 00 00 00 00 00 00
  can1  255   [8]  9A 19 00 01 DF 01 00 00
  can1  155   [8]  9C 00 00 00 00 00 00 00
  can1  255   [8]  9C 19 BF FF FD FF 30 F6
  can1  15A   [8]  71 00 00 00 00 00 00 00
  can1  25A   [8]  71 00 00 00 00 00 00 00
  can1  15A   [8]  42 00 00 00 00 00 00 00
  can1  25A   [8]  42 00 00 00 C8 00 00 00
  can1  15A   [8]  9A 00 00 00 00 00 00 00
  can1  25A   [8]  9A 1A 00 01 E0 01 00 00
  can1  15A   [8]  9C 00 00 00 00 00 00 00
  can1  25A   [8]  9C 1A D0 FF 00 00 71 1E
  can1  158   [8]  9A 00 00 00 00 00 00 00
  can1  258   [8]  9A 19 00 01 E0 01 00 00
  can1  158   [8]  9C 00 00 00 00 00 00 00
  can1  258   [8]  9C 19 C4 FF 00 00 65 18
  can1  156   [8]  71 00 00 00 00 00 00 00
  can1  256   [8]  71 00 00 00 00 00 00 00
  can1  156   [8]  42 00 00 00 00 00 00 00
  can1  256   [8]  42 00 00 00 C8 00 00 00
  can1  156   [8]  9A 00 00 00 00 00 00 00
  can1  256   [8]  9A 19 00 01 E0 01 00 00
  can1  156   [8]  9C 00 00 00 00 00 00 00
  can1  256   [8]  9C 19 FD FE 01 00 51 D8
  can1  159   [8]  71 00 00 00 00 00 00 00
  can1  259   [8]  71 00 00 00 00 00 00 00
  can1  159   [8]  42 00 00 00 00 00 00 00
  can1  259   [8]  42 00 00 00 C8 00 00 00
  can1  159   [8]  9A 00 00 00 00 00 00 00
  can1  259   [8]  9A 19 00 01 DE 01 00 00
  can1  159   [8]  9C 00 00 00 00 00 00 00
  can1  259   [8]  9C 19 AE FF 00 00 36 5A
  can1  157   [8]  9A 00 00 00 00 00 00 00
  can1  257   [8]  9A 19 00 01 DF 01 00 00
  can1  157   [8]  9C 00 00 00 00 00 00 00
  can1  257   [8]  9C 19 05 00 00 00 27 D8
  can1  155   [8]  9A 00 00 00 00 00 00 00
  can1  255   [8]  9A 19 00 01 E0 01 00 00
  can1  155   [8]  9C 00 00 00 00 00 00 00
  can1  255   [8]  9C 19 A0 FF 00 00 30 F6
  can1  15A   [8]  9A 00 00 00 00 00 00 00
  can1  25A   [8]  9A 19 00 01 E2 01 00 00
  can1  15A   [8]  9C 00 00 00 00 00 00 00
  can1  25A   [8]  9C 1A E9 FF FF FF 71 1E
  can1  158   [8]  71 00 00 00 00 00 00 00
  can1  258   [8]  71 00 00 00 00 00 00 00
  can1  158   [8]  42 00 00 00 00 00 00 00
  can1  258   [8]  42 00 00 00 C8 00 00 00
  can1  158   [8]  9A 00 00 00 00 00 00 00
  can1  258   [8]  9A 19 00 01 DF 01 00 00
  can1  158   [8]  9C 00 00 00 00 00 00 00
  can1  258   [8]  9C 19 CF FF 00 00 65 18
  can1  156   [8]  9A 00 00 00 00 00 00 00
  can1  256   [8]  9A 19 00 01 DF 01 00 00
  can1  156   [8]  9C 00 00 00 00 00 00 00
  can1  256   [8]  9C 19 0B FF 00 00 51 D8
  can1  159   [8]  9A 00 00 00 00 00 00 00
  can1  259   [8]  9A 19 00 01 DE 01 00 00
  can1  159   [8]  9C 00 00 00 00 00 00 00
  can1  259   [8]  9C 19 B3 FF 00 00 36 5A
  can1  157   [8]  9A 00 00 00 00 00 00 00
  can1  257   [8]  9A 19 00 01 DF 01 00 00
  can1  157   [8]  9C 00 00 00 00 00 00 00
  can1  257   [8]  9C 19 00 00 00 00 27 D8
  can1  155   [8]  9A 00 00 00 00 00 00 00
  can1  255   [8]  9A 19 00 01 DF 01 00 00
  can1  155   [8]  9C 00 00 00 00 00 00 00
  can1  255   [8]  9C 19 B6 FF 00 00 30 F6
  can1  15A   [8]  9A 00 00 00 00 00 00 00
  can1  25A   [8]  9A 1A 00 01 E1 01 00 00
  can1  15A   [8]  9C 00 00 00 00 00 00 00
  can1  25A   [8]  9C 1A D8 FF 00 00 71 1E
  can1  158   [8]  9A 00 00 00 00 00 00 00
  can1  258   [8]  9A 19 00 01 DF 01 00 00
  can1  158   [8]  9C 00 00 00 00 00 00 00
  can1  258   [8]  9C 19 C7 FF 00 00 65 18
  can1  156   [8]  9A 00 00 00 00 00 00 00
  can1  256   [8]  9A 19 00 01 E0 01 00 00
  can1  156   [8]  9C 00 00 00 00 00 00 00
  can1  256   [8]  9C 19 46 FF 00 00 51 D8
  can1  159   [8]  9A 00 00 00 00 00 00 00
  can1  259   [8]  9A 19 00 01 DE 01 00 00
  can1  159   [8]  9C 00 00 00 00 00 00 00
  can1  259   [8]  9C 19 BD FF FF FF 36 5A
  can1  157   [8]  9A 00 00 00 00 00 00 00
  can1  257   [8]  9A 19 00 01 DF 01 00 00
  can1  157   [8]  9C 00 00 00 00 00 00 00
  can1  257   [8]  9C 19 09 00 01 00 27 D8
  can1  155   [8]  9A 00 00 00 00 00 00 00
  can1  255   [8]  9A 19 00 01 DF 01 00 00
  can1  155   [8]  9C 00 00 00 00 00 00 00
  can1  255   [8]  9C 19 A3 FF FF FF 30 F6
  can1  15A   [8]  9A 00 00 00 00 00 00 00
  can1  25A   [8]  9A 1A 00 01 E0 01 00 00
  can1  15A   [8]  9C 00 00 00 00 00 00 00
  can1  25A   [8]  9C 1A DA FF FF FF 71 1E
  can1  158   [8]  9A 00 00 00 00 00 00 00
  can1  258   [8]  9A 19 00 01 DF 01 00 00
  can1  158   [8]  9C 00 00 00 00 00 00 00
  can1  258   [8]  9C 19 CA FF 00 00 65 18
  can1  156   [8]  9A 00 00 00 00 00 00 00
  can1  256   [8]  9A 19 00 01 DF 01 00 00
  can1  156   [8]  9C 00 00 00 00 00 00 00
  can1  256   [8]  9C 19 16 FF 00 00 51 D8
  can1  159   [8]  9A 00 00 00 00 00 00 00
  can1  259   [8]  9A 19 00 01 DE 01 00 00
  can1  159   [8]  9C 00 00 00 00 00 00 00
  can1  259   [8]  9C 19 B7 FF 00 00 36 5A
  can1  157   [8]  9A 00 00 00 00 00 00 00
  can1  257   [8]  9A 19 00 01 DF 01 00 00
  can1  157   [8]  9C 00 00 00 00 00 00 00
  can1  257   [8]  9C 19 03 00 01 00 27 D8
  can1  155   [8]  9A 00 00 00 00 00 00 00
  can1  255   [8]  9A 19 00 01 DF 01 00 00
  can1  155   [8]  9C 00 00 00 00 00 00 00
  can1  255   [8]  9C 19 C2 FF 00 00 30 F6
  can1  15A   [8]  9A 00 00 00 00 00 00 00
  can1  25A   [8]  9A 1A 00 01 E1 01 00 00
  can1  15A   [8]  9C 00 00 00 00 00 00 00
  can1  25A   [8]  9C 1A DD FF 01 00 71 1E
  can1  158   [8]  9A 00 00 00 00 00 00 00
  can1  258   [8]  9A 19 00 01 DF 01 00 00
  can1  158   [8]  9C 00 00 00 00 00 00 00
  can1  258   [8]  9C 19 CF FF 00 00 65 18
  can1  156   [8]  9A 00 00 00 00 00 00 00
  can1  256   [8]  9A 19 00 01 DF 01 00 00
  can1  156   [8]  9C 00 00 00 00 00 00 00
  can1  256   [8]  9C 19 19 FF 00 00 51 D8
  can1  159   [8]  9A 00 00 00 00 00 00 00
  can1  259   [8]  9A 19 00 01 DE 01 00 00
  can1  159   [8]  9C 00 00 00 00 00 00 00
  can1  259   [8]  9C 19 B7 FF 00 00 36 5A
  can1  157   [8]  71 00 00 00 00 00 00 00
  can1  257   [8]  71 00 00 00 00 00 00 00
  can1  157   [8]  42 00 00 00 00 00 00 00
  can1  257   [8]  42 00 00 00 C8 00 00 00
  can1  157   [8]  9A 00 00 00 00 00 00 00
  can1  257   [8]  9A 19 00 01 DF 01 00 00
  can1  157   [8]  9C 00 00 00 00 00 00 00
  can1  257   [8]  9C 19 12 00 00 00 27 D8
  can1  155   [8]  71 00 00 00 00 00 00 00
  can1  255   [8]  71 00 00 00 00 00 00 00
  can1  155   [8]  42 00 00 00 00 00 00 00
  can1  255   [8]  42 00 00 00 10 27 00 00
  can1  155   [8]  9A 00 00 00 00 00 00 00
  can1  255   [8]  9A 19 00 01 DF 01 00 00
  can1  155   [8]  9C 00 00 00 00 00 00 00
  can1  255   [8]  9C 19 A9 FF 00 00 30 F6
  can1  15A   [8]  71 00 00 00 00 00 00 00
  can1  25A   [8]  71 00 00 00 00 00 00 00
  can1  15A   [8]  42 00 00 00 00 00 00 00
  can1  25A   [8]  42 00 00 00 C8 00 00 00
  can1  15A   [8]  9A 00 00 00 00 00 00 00
  can1  25A   [8]  9A 1A 00 01 E1 01 00 00
  can1  15A   [8]  9C 00 00 00 00 00 00 00
  can1  25A   [8]  9C 1A D6 FF 00 00 71 1E
  can1  158   [8]  9A 00 00 00 00 00 00 00
  can1  258   [8]  9A 19 00 01 DF 01 00 00
  can1  158   [8]  9C 00 00 00 00 00 00 00
  can1  258   [8]  9C 19 CC FF 00 00 65 18
  can1  156   [8]  71 00 00 00 00 00 00 00
  can1  256   [8]  71 00 00 00 00 00 00 00
  can1  156   [8]  42 00 00 00 00 00 00 00
  can1  256   [8]  42 00 00 00 C8 00 00 00
  can1  156   [8]  9A 00 00 00 00 00 00 00
  can1  256   [8]  9A 19 00 01 E0 01 00 00
  can1  156   [8]  9C 00 00 00 00 00 00 00
  can1  256   [8]  9C 19 1C FF 00 00 51 D8
  can1  159   [8]  71 00 00 00 00 00 00 00
  can1  259   [8]  71 00 00 00 00 00 00 00
  can1  159   [8]  42 00 00 00 00 00 00 00
  can1  259   [8]  42 00 00 00 C8 00 00 00
  can1  159   [8]  9A 00 00 00 00 00 00 00
  can1  259   [8]  9A 19 00 01 DE 01 00 00
  can1  159   [8]  9C 00 00 00 00 00 00 00
  can1  259   [8]  9C 19 B8 FF 00 00 36 5A
  can1  157   [8]  9A 00 00 00 00 00 00 00
  can1  257   [8]  9A 19 00 01 DF 01 00 00
  can1  157   [8]  9C 00 00 00 00 00 00 00
  can1  257   [8]  9C 19 0E 00 00 00 27 D8
  can1  155   [8]  9A 00 00 00 00 00 00 00
  can1  255   [8]  9A 19 00 01 DF 01 00 00
  can1  155   [8]  9C 00 00 00 00 00 00 00
  can1  255   [8]  9C 19 AF FF 00 00 30 F6
  can1  15A   [8]  9A 00 00 00 00 00 00 00
  can1  25A   [8]  9A 1A 00 01 E1 01 00 00
  can1  15A   [8]  9C 00 00 00 00 00 00 00
  can1  25A   [8]  9C 1A F2 FF FF FF 71 1E
  can1  158   [8]  71 00 00 00 00 00 00 00
  can1  258   [8]  71 00 00 00 00 00 00 00
  can1  158   [8]  42 00 00 00 00 00 00 00
  can1  258   [8]  42 00 00 00 C8 00 00 00
  can1  158   [8]  9A 00 00 00 00 00 00 00
  can1  258   [8]  9A 19 00 01 DF 01 00 00
  can1  158   [8]  9C 00 00 00 00 00 00 00
  can1  258   [8]  9C 19 C9 FF 00 00 65 18
  can1  156   [8]  9A 00 00 00 00 00 00 00
  can1  256   [8]  9A 19 00 01 E0 01 00 00
  can1  156   [8]  9C 00 00 00 00 00 00 00
  can1  256   [8]  9C 19 4C FF 00 00 51 D8
  can1  159   [8]  9A 00 00 00 00 00 00 00
  can1  259   [8]  9A 19 00 01 DE 01 00 00
  can1  159   [8]  9C 00 00 00 00 00 00 00
  can1  259   [8]  9C 19 B8 FF 00 00 36 5A
  can1  157   [8]  9A 00 00 00 00 00 00 00
  can1  257   [8]  9A 19 00 01 DE 01 00 00
  can1  157   [8]  9C 00 00 00 00 00 00 00
  can1  257   [8]  9C 19 19 00 00 00 27 D8
  can1  155   [8]  9A 00 00 00 00 00 00 00
  can1  255   [8]  9A 19 00 01 DF 01 00 00
  can1  155   [8]  9C 00 00 00 00 00 00 00
  can1  255   [8]  9C 19 AB FF 00 00 30 F6
  can1  15A   [8]  9A 00 00 00 00 00 00 00
  can1  25A   [8]  9A 1A 00 01 E1 01 00 00
  can1  15A   [8]  9C 00 00 00 00 00 00 00
  can1  25A   [8]  9C 1A F2 FF 00 00 71 1E
  can1  158   [8]  9A 00 00 00 00 00 00 00
  can1  258   [8]  9A 19 00 01 DF 01 00 00
  can1  158   [8]  9C 00 00 00 00 00 00 00
  can1  258   [8]  9C 19 CC FF 00 00 65 18
  can1  156   [8]  9A 00 00 00 00 00 00 00
  can1  256   [8]  9A 19 00 01 E0 01 00 00
  can1  156   [8]  9C 00 00 00 00 00 00 00
  can1  256   [8]  9C 19 06 FF 00 00 51 D8
  can1  159   [8]  9A 00 00 00 00 00 00 00
  can1  259   [8]  9A 19 00 01 DE 01 00 00
  can1  159   [8]  9C 00 00 00 00 00 00 00
  can1  259   [8]  9C 19 B1 FF 00 00 36 5A
  can1  157   [8]  9A 00 00 00 00 00 00 00
  can1  257   [8]  9A 19 00 01 DF 01 00 00
  can1  157   [8]  9C 00 00 00 00 00 00 00
  can1  257   [8]  9C 19 08 00 FD FF 27 D8
  can1  155   [8]  9A 00 00 00 00 00 00 00
  can1  255   [8]  9A 19 00 01 DF 01 00 00
  can1  155   [8]  9C 00 00 00 00 00 00 00
  can1  255   [8]  9C 19 B7 FF 00 00 30 F6
  can1  15A   [8]  9A 00 00 00 00 00 00 00
  can1  25A   [8]  9A 1A 00 01 E1 01 00 00
  can1  15A   [8]  9C 00 00 00 00 00 00 00
  can1  25A   [8]  9C 1A F6 FF 00 00 71 1E
  can1  158   [8]  9A 00 00 00 00 00 00 00
  can1  258   [8]  9A 19 00 01 DF 01 00 00
  can1  158   [8]  9C 00 00 00 00 00 00 00
  can1  258   [8]  9C 19 CE FF 00 00 65 18
  can1  156   [8]  9A 00 00 00 00 00 00 00
  can1  256   [8]  9A 19 00 01 E0 01 00 00
  can1  156   [8]  9C 00 00 00 00 00 00 00
  can1  256   [8]  9C 19 11 FF 00 00 51 D8
  can1  159   [8]  9A 00 00 00 00 00 00 00
  can1  259   [8]  9A 19 00 01 DE 01 00 00
  can1  159   [8]  9C 00 00 00 00 00 00 00
  can1  259   [8]  9C 19 B1 FF 00 00 36 5A
  can1  157   [8]  9A 00 00 00 00 00 00 00
  can1  257   [8]  9A 19 00 01 DF 01 00 00
  can1  157   [8]  9C 00 00 00 00 00 00 00
  can1  257   [8]  9C 19 05 00 00 00 27 D8
  can1  155   [8]  9A 00 00 00 00 00 00 00
  can1  255   [8]  9A 19 00 01 E0 01 00 00
  can1  155   [8]  9C 00 00 00 00 00 00 00
  can1  255   [8]  9C 19 B8 FF 00 00 30 F6
  can1  15A   [8]  9A 00 00 00 00 00 00 00
  can1  25A   [8]  9A 1A 00 01 E1 01 00 00
  can1  15A   [8]  9C 00 00 00 00 00 00 00
  can1  25A   [8]  9C 1A F7 FF 00 00 71 1E
  can1  158   [8]  9A 00 00 00 00 00 00 00
  can1  258   [8]  9A 19 00 01 DF 01 00 00
  can1  158   [8]  9C 00 00 00 00 00 00 00
  can1  258   [8]  9C 19 CA FF 00 00 65 18
  can1  156   [8]  9A 00 00 00 00 00 00 00
  can1  256   [8]  9A 19 00 01 E0 01 00 00
  can1  156   [8]  9C 00 00 00 00 00 00 00
  can1  256   [8]  9C 19 3A FF 00 00 51 D8
  can1  159   [8]  9A 00 00 00 00 00 00 00
  can1  259   [8]  9A 19 00 01 DE 01 00 00
  can1  159   [8]  9C 00 00 00 00 00 00 00
  can1  259   [8]  9C 19 BD FF 00 00 36 5A
  can1  157   [8]  71 00 00 00 00 00 00 00
  can1  257   [8]  71 00 00 00 00 00 00 00
  can1  157   [8]  42 00 00 00 00 00 00 00
  can1  257   [8]  42 00 00 00 C8 00 00 00
  can1  157   [8]  9A 00 00 00 00 00 00 00
  can1  257   [8]  9A 19 00 01 DE 01 00 00
  can1  157   [8]  9C 00 00 00 00 00 00 00
  can1  257   [8]  9C 19 F2 FF 01 00 27 D8
  can1  155   [8]  71 00 00 00 00 00 00 00
  can1  255   [8]  71 00 00 00 00 00 00 00
  can1  155   [8]  42 00 00 00 00 00 00 00
  can1  255   [8]  42 00 00 00 10 27 00 00
  can1  155   [8]  9A 00 00 00 00 00 00 00
  can1  255   [8]  9A 19 00 01 DF 01 00 00
  can1  155   [8]  9C 00 00 00 00 00 00 00
  can1  255   [8]  9C 19 B3 FF 00 00 30 F6
  can1  15A   [8]  71 00 00 00 00 00 00 00
  can1  25A   [8]  71 00 00 00 00 00 00 00
  can1  15A   [8]  42 00 00 00 00 00 00 00
  can1  25A   [8]  42 00 00 00 C8 00 00 00
  can1  15A   [8]  9A 00 00 00 00 00 00 00
  can1  25A   [8]  9A 1A 00 01 E0 01 00 00
  can1  15A   [8]  9C 00 00 00 00 00 00 00
  can1  25A   [8]  9C 1A 00 00 00 00 71 1E
  can1  158   [8]  9A 00 00 00 00 00 00 00
  can1  258   [8]  9A 19 00 01 DF 01 00 00
  can1  158   [8]  9C 00 00 00 00 00 00 00
  can1  258   [8]  9C 19 CC FF 01 00 65 18
  can1  156   [8]  71 00 00 00 00 00 00 00
  can1  256   [8]  71 00 00 00 00 00 00 00
  can1  156   [8]  42 00 00 00 00 00 00 00
  can1  256   [8]  42 00 00 00 C8 00 00 00
  can1  156   [8]  9A 00 00 00 00 00 00 00
  can1  256   [8]  9A 19 00 01 DF 01 00 00
  can1  156   [8]  9C 00 00 00 00 00 00 00
  can1  256   [8]  9C 19 11 FF 00 00 51 D8
  can1  159   [8]  71 00 00 00 00 00 00 00
  can1  259   [8]  71 00 00 00 00 00 00 00
  can1  159   [8]  42 00 00 00 00 00 00 00
  can1  259   [8]  42 00 00 00 C8 00 00 00
  can1  159   [8]  9A 00 00 00 00 00 00 00
  can1  259   [8]  9A 19 00 01 DE 01 00 00
  can1  159   [8]  9C 00 00 00 00 00 00 00
  can1  259   [8]  9C 19 BC FF 00 00 36 5A
  can1  157   [8]  9A 00 00 00 00 00 00 00
  can1  257   [8]  9A 19 00 01 DF 01 00 00
  can1  157   [8]  9C 00 00 00 00 00 00 00
  can1  257   [8]  9C 19 1C 00 00 00 27 D8
  can1  155   [8]  9A 00 00 00 00 00 00 00
  can1  255   [8]  9A 19 00 01 DF 01 00 00
  can1  155   [8]  9C 00 00 00 00 00 00 00
  can1  255   [8]  9C 19 AE FF 00 00 30 F6
  can1  15A   [8]  9A 00 00 00 00 00 00 00
  can1  25A   [8]  9A 1A 00 01 E1 01 00 00
  can1  15A   [8]  9C 00 00 00 00 00 00 00
  can1  25A   [8]  9C 1A EC FF 00 00 71 1E
  can1  158   [8]  71 00 00 00 00 00 00 00
  can1  258   [8]  71 00 00 00 00 00 00 00
  can1  158   [8]  42 00 00 00 00 00 00 00
  can1  258   [8]  42 00 00 00 C8 00 00 00
  can1  158   [8]  9A 00 00 00 00 00 00 00
  can1  258   [8]  9A 19 00 01 DF 01 00 00
  can1  158   [8]  9C 00 00 00 00 00 00 00
  can1  258   [8]  9C 19 CD FF 00 00 65 18
  can1  156   [8]  9A 00 00 00 00 00 00 00
  can1  256   [8]  9A 19 00 01 E0 01 00 00
  can1  156   [8]  9C 00 00 00 00 00 00 00
  can1  256   [8]  9C 19 45 FF 00 00 51 D8
  can1  159   [8]  9A 00 00 00 00 00 00 00
  can1  259   [8]  9A 19 00 01 DE 01 00 00
  can1  159   [8]  9C 00 00 00 00 00 00 00
  can1  259   [8]  9C 19 BB FF 00 00 36 5A
  can1  157   [8]  9A 00 00 00 00 00 00 00
  can1  257   [8]  9A 19 00 01 DF 01 00 00
  can1  157   [8]  9C 00 00 00 00 00 00 00
  can1  257   [8]  9C 19 05 00 03 00 27 D8
  can1  155   [8]  9A 00 00 00 00 00 00 00
  can1  255   [8]  9A 19 00 01 DF 01 00 00
  can1  155   [8]  9C 00 00 00 00 00 00 00
  can1  255   [8]  9C 19 A6 FF 00 00 30 F6
  can1  15A   [8]  9A 00 00 00 00 00 00 00
  can1  25A   [8]  9A 1A 00 01 E1 01 00 00
  can1  15A   [8]  9C 00 00 00 00 00 00 00
  can1  25A   [8]  9C 1A FA FF FF FF 71 1E
  can1  158   [8]  9A 00 00 00 00 00 00 00
  can1  258   [8]  9A 19 00 01 DF 01 00 00
  can1  158   [8]  9C 00 00 00 00 00 00 00
  can1  258   [8]  9C 19 D2 FF 00 00 65 18
  can1  156   [8]  9A 00 00 00 00 00 00 00
  can1  256   [8]  9A 19 00 01 DF 01 00 00
  can1  156   [8]  9C 00 00 00 00 00 00 00
  can1  256   [8]  9C 19 2B FF 00 00 51 D8
  can1  159   [8]  9A 00 00 00 00 00 00 00
  can1  259   [8]  9A 19 00 01 DE 01 00 00
  can1  159   [8]  9C 00 00 00 00 00 00 00
  can1  259   [8]  9C 19 B6 FF 00 00 36 5A
  can1  157   [8]  9A 00 00 00 00 00 00 00
  can1  257   [8]  9A 19 00 01 DF 01 00 00
  can1  157   [8]  9C 00 00 00 00 00 00 00
  can1  257   [8]  9C 19 0E 00 00 00 27 D8
  can1  155   [8]  9A 00 00 00 00 00 00 00
  can1  255   [8]  9A 19 00 01 DF 01 00 00
  can1  155   [8]  9C 00 00 00 00 00 00 00
  can1  255   [8]  9C 19 A7 FF 00 00 30 F6
  can1  15A   [8]  9A 00 00 00 00 00 00 00
  can1  25A   [8]  9A 1A 00 01 E1 01 00 00
  can1  15A   [8]  9C 00 00 00 00 00 00 00
  can1  25A   [8]  9C 1A EE FF 00 00 71 1E
  can1  158   [8]  9A 00 00 00 00 00 00 00
  can1  258   [8]  9A 19 00 01 DF 01 00 00
  can1  158   [8]  9C 00 00 00 00 00 00 00
  can1  258   [8]  9C 19 CC FF 00 00 65 18
  can1  156   [8]  9A 00 00 00 00 00 00 00
  can1  256   [8]  9A 19 00 01 E0 01 00 00
  can1  156   [8]  9C 00 00 00 00 00 00 00
  can1  256   [8]  9C 19 01 FF 00 00 51 D8
  can1  159   [8]  9A 00 00 00 00 00 00 00
  can1  259   [8]  9A 19 00 01 DE 01 00 00
  can1  159   [8]  9C 00 00 00 00 00 00 00
  can1  259   [8]  9C 19 BA FF 00 00 36 5A
  can1  157   [8]  9A 00 00 00 00 00 00 00
  can1  257   [8]  9A 19 00 01 DF 01 00 00
  can1  157   [8]  9C 00 00 00 00 00 00 00
  can1  257   [8]  9C 19 F8 FF 00 00 27 D8
  can1  155   [8]  9A 00 00 00 00 00 00 00
  can1  255   [8]  9A 19 00 01 DF 01 00 00
  can1  155   [8]  9C 00 00 00 00 00 00 00
  can1  255   [8]  9C 19 AE FF FF FF 30 F6
  can1  15A   [8]  9A 00 00 00 00 00 00 00
  can1  25A   [8]  9A 1A 00 01 E1 01 00 00
  can1  15A   [8]  9C 00 00 00 00 00 00 00
  can1  25A   [8]  9C 1A F0 FF 00 00 71 1E
  can1  158   [8]  9A 00 00 00 00 00 00 00
  can1  258   [8]  9A 19 00 01 DF 01 00 00
  can1  158   [8]  9C 00 00 00 00 00 00 00
  can1  258   [8]  9C 19 CA FF 00 00 65 18
  can1  156   [8]  9A 00 00 00 00 00 00 00
  can1  256   [8]  9A 19 00 01 E0 01 00 00
  can1  156   [8]  9C 00 00 00 00 00 00 00
  can1  256   [8]  9C 19 3C FF FD FF 51 D8
  can1  159   [8]  9A 00 00 00 00 00 00 00
  can1  259   [8]  9A 19 00 01 DE 01 00 00
  can1  159   [8]  9C 00 00 00 00 00 00 00
  can1  259   [8]  9C 19 B7 FF 00 00 36 5A
  can1  157   [8]  71 00 00 00 00 00 00 00
  can1  257   [8]  71 00 00 00 00 00 00 00
  can1  157   [8]  42 00 00 00 00 00 00 00
  can1  257   [8]  42 00 00 00 C8 00 00 00
  can1  157   [8]  9A 00 00 00 00 00 00 00
  can1  257   [8]  9A 19 00 01 DF 01 00 00
  can1  157   [8]  9C 00 00 00 00 00 00 00
  can1  257   [8]  9C 19 08 00 00 00 27 D8
  can1  155   [8]  71 00 00 00 00 00 00 00
  can1  255   [8]  71 00 00 00 00 00 00 00
  can1  155   [8]  42 00 00 00 00 00 00 00
  can1  255   [8]  42 00 00 00 10 27 00 00
  can1  155   [8]  9A 00 00 00 00 00 00 00
  can1  255   [8]  9A 19 00 01 E0 01 00 00
  can1  155   [8]  9C 00 00 00 00 00 00 00
  can1  255   [8]  9C 19 A7 FF 00 00 30 F6
  can1  15A   [8]  71 00 00 00 00 00 00 00
  can1  25A   [8]  71 00 00 00 00 00 00 00
  can1  15A   [8]  42 00 00 00 00 00 00 00
  can1  25A   [8]  42 00 00 00 C8 00 00 00
  can1  15A   [8]  9A 00 00 00 00 00 00 00
  can1  25A   [8]  9A 1A 00 01 E1 01 00 00
  can1  15A   [8]  9C 00 00 00 00 00 00 00
  can1  25A   [8]  9C 1A 06 00 04 00 71 1E
  can1  158   [8]  9A 00 00 00 00 00 00 00
  can1  258   [8]  9A 19 00 01 DF 01 00 00
  can1  158   [8]  9C 00 00 00 00 00 00 00
  can1  258   [8]  9C 19 D0 FF 00 00 65 18
  can1  156   [8]  71 00 00 00 00 00 00 00
  can1  256   [8]  71 00 00 00 00 00 00 00
  can1  156   [8]  42 00 00 00 00 00 00 00
  can1  256   [8]  42 00 00 00 C8 00 00 00
  can1  156   [8]  9A 00 00 00 00 00 00 00
  can1  256   [8]  9A 19 00 01 E0 01 00 00
  can1  156   [8]  9C 00 00 00 00 00 00 00
  can1  256   [8]  9C 19 33 FF 00 00 51 D8
  can1  159   [8]  71 00 00 00 00 00 00 00
  can1  259   [8]  71 00 00 00 00 00 00 00
  can1  159   [8]  42 00 00 00 00 00 00 00
  can1  259   [8]  42 00 00 00 C8 00 00 00
  can1  159   [8]  9A 00 00 00 00 00 00 00
  can1  259   [8]  9A 19 00 01 DE 01 00 00
  can1  159   [8]  9C 00 00 00 00 00 00 00
  can1  259   [8]  9C 19 AF FF 00 00 36 5A
  can1  157   [8]  9A 00 00 00 00 00 00 00
  can1  257   [8]  9A 19 00 01 DF 01 00 00
  can1  157   [8]  9C 00 00 00 00 00 00 00
  can1  257   [8]  9C 19 05 00 00 00 27 D8
  can1  155   [8]  9A 00 00 00 00 00 00 00
  can1  255   [8]  9A 19 00 01 DF 01 00 00
  can1  155   [8]  9C 00 00 00 00 00 00 00
  can1  255   [8]  9C 19 B4 FF FE FF 30 F6
  can1  15A   [8]  9A 00 00 00 00 00 00 00
  can1  25A   [8]  9A 1A 00 01 E1 01 00 00
  can1  15A   [8]  9C 00 00 00 00 00 00 00
  can1  25A   [8]  9C 1A E2 FF 00 00 71 1E
  can1  158   [8]  71 00 00 00 00 00 00 00
  can1  258   [8]  71 00 00 00 00 00 00 00
  can1  158   [8]  42 00 00 00 00 00 00 00
  can1  258   [8]  42 00 00 00 C8 00 00 00
  can1  158   [8]  9A 00 00 00 00 00 00 00
  can1  258   [8]  9A 19 00 01 DF 01 00 00
  can1  158   [8]  9C 00 00 00 00 00 00 00
  can1  258   [8]  9C 19 D1 FF 00 00 65 18
  can1  156   [8]  9A 00 00 00 00 00 00 00
  can1  256   [8]  9A 19 00 01 E0 01 00 00
  can1  156   [8]  9C 00 00 00 00 00 00 00
  can1  256   [8]  9C 19 34 FF 00 00 51 D8
  can1  159   [8]  9A 00 00 00 00 00 00 00
  can1  259   [8]  9A 19 00 01 DE 01 00 00
  can1  159   [8]  9C 00 00 00 00 00 00 00
  can1  259   [8]  9C 19 BA FF 00 00 36 5A
  can1  157   [8]  9A 00 00 00 00 00 00 00
  can1  257   [8]  9A 19 00 01 DE 01 00 00
  can1  157   [8]  9C 00 00 00 00 00 00 00
  can1  257   [8]  9C 19 1B 00 00 00 27 D8
  can1  155   [8]  9A 00 00 00 00 00 00 00
  can1  255   [8]  9A 19 00 01 DF 01 00 00
  can1  155   [8]  9C 00 00 00 00 00 00 00
  can1  255   [8]  9C 19 A1 FF 00 00 30 F6
  can1  15A   [8]  9A 00 00 00 00 00 00 00
  can1  25A   [8]  9A 1A 00 01 E1 01 00 00
  can1  15A   [8]  9C 00 00 00 00 00 00 00
  can1  25A   [8]  9C 1A FC FF 00 00 71 1E
  can1  158   [8]  9A 00 00 00 00 00 00 00
  can1  258   [8]  9A 19 00 01 DF 01 00 00
  can1  158   [8]  9C 00 00 00 00 00 00 00
  can1  258   [8]  9C 19 CC FF 00 00 65 18
  can1  156   [8]  9A 00 00 00 00 00 00 00
  can1  256   [8]  9A 19 00 01 E0 01 00 00
  can1  156   [8]  9C 00 00 00 00 00 00 00
  can1  256   [8]  9C 19 43 FF FC FF 51 D8
  can1  159   [8]  9A 00 00 00 00 00 00 00
  can1  259   [8]  9A 19 00 01 DF 01 00 00
  can1  159   [8]  9C 00 00 00 00 00 00 00
  can1  259   [8]  9C 19 B3 FF 00 00 36 5A
  can1  157   [8]  9A 00 00 00 00 00 00 00
  can1  257   [8]  9A 19 00 01 DF 01 00 00
  can1  157   [8]  9C 00 00 00 00 00 00 00
  can1  257   [8]  9C 19 01 00 00 00 27 D8
  can1  155   [8]  9A 00 00 00 00 00 00 00
  can1  255   [8]  9A 19 00 01 DF 01 00 00
  can1  155   [8]  9C 00 00 00 00 00 00 00
  can1  255   [8]  9C 19 A8 FF 00 00 30 F6
  can1  15A   [8]  9A 00 00 00 00 00 00 00
  can1  25A   [8]  9A 1A 00 01 E0 01 00 00
  can1  15A   [8]  9C 00 00 00 00 00 00 00
  can1  25A   [8]  9C 1A F3 FF FF FF 71 1E
  can1  158   [8]  9A 00 00 00 00 00 00 00
  can1  258   [8]  9A 19 00 01 DF 01 00 00
  can1  158   [8]  9C 00 00 00 00 00 00 00
  can1  258   [8]  9C 19 D7 FF FF FF 65 18
  can1  156   [8]  9A 00 00 00 00 00 00 00
  can1  256   [8]  9A 19 00 01 E0 01 00 00
  can1  156   [8]  9C 00 00 00 00 00 00 00
  can1  256   [8]  9C 19 16 FF 00 00 51 D8
  can1  159   [8]  9A 00 00 00 00 00 00 00
  can1  259   [8]  9A 19 00 01 DE 01 00 00
  can1  159   [8]  9C 00 00 00 00 00 00 00
  can1  259   [8]  9C 19 C4 FF FF FF 36 5A
  can1  157   [8]  9A 00 00 00 00 00 00 00
  can1  257   [8]  9A 19 00 01 DF 01 00 00
  can1  157   [8]  9C 00 00 00 00 00 00 00
  can1  257   [8]  9C 19 0B 00 FF FF 27 D8
  can1  155   [8]  9A 00 00 00 00 00 00 00
  can1  255   [8]  9A 19 00 01 DF 01 00 00
  can1  155   [8]  9C 00 00 00 00 00 00 00
  can1  255   [8]  9C 19 B2 FF 00 00 30 F6
  can1  15A   [8]  9A 00 00 00 00 00 00 00
  can1  25A   [8]  9A 1A 00 01 E1 01 00 00
  can1  15A   [8]  9C 00 00 00 00 00 00 00
  can1  25A   [8]  9C 1A E6 FF 00 00 71 1E
  can1  158   [8]  9A 00 00 00 00 00 00 00
  can1  258   [8]  9A 19 00 01 E0 01 00 00
  can1  158   [8]  9C 00 00 00 00 00 00 00
  can1  258   [8]  9C 19 D8 FF 00 00 65 18
  can1  156   [8]  9A 00 00 00 00 00 00 00
  can1  256   [8]  9A 19 00 01 E0 01 00 00
  can1  156   [8]  9C 00 00 00 00 00 00 00
  can1  256   [8]  9C 19 0A FF 00 00 51 D8
  can1  159   [8]  9A 00 00 00 00 00 00 00
  can1  259   [8]  9A 19 00 01 DF 01 00 00
  can1  159   [8]  9C 00 00 00 00 00 00 00
  can1  259   [8]  9C 19 B4 FF 00 00 36 5A
  can1  157   [8]  71 00 00 00 00 00 00 00
  can1  257   [8]  71 00 00 00 00 00 00 00
  can1  157   [8]  42 00 00 00 00 00 00 00
  can1  257   [8]  42 00 00 00 C8 00 00 00
  can1  157   [8]  9A 00 00 00 00 00 00 00
  can1  257   [8]  9A 19 00 01 DF 01 00 00
  can1  157   [8]  9C 00 00 00 00 00 00 00
  can1  257   [8]  9C 19 14 00 00 00 27 D8
  can1  155   [8]  71 00 00 00 00 00 00 00
  can1  255   [8]  71 00 00 00 00 00 00 00
  can1  155   [8]  42 00 00 00 00 00 00 00
  can1  255   [8]  42 00 00 00 10 27 00 00
  can1  155   [8]  9A 00 00 00 00 00 00 00
  can1  255   [8]  9A 19 00 01 DF 01 00 00
  can1  155   [8]  9C 00 00 00 00 00 00 00
  can1  255   [8]  9C 19 B8 FF 00 00 30 F6
  can1  15A   [8]  71 00 00 00 00 00 00 00
  can1  25A   [8]  71 00 00 00 00 00 00 00
  can1  15A   [8]  42 00 00 00 00 00 00 00
  can1  25A   [8]  42 00 00 00 C8 00 00 00
  can1  15A   [8]  9A 00 00 00 00 00 00 00
  can1  25A   [8]  9A 1A 00 01 E0 01 00 00
  can1  15A   [8]  9C 00 00 00 00 00 00 00
  can1  25A   [8]  9C 1A F2 FF FC FF 71 1E
  can1  158   [8]  9A 00 00 00 00 00 00 00
  can1  258   [8]  9A 19 00 01 DF 01 00 00
  can1  158   [8]  9C 00 00 00 00 00 00 00
  can1  258   [8]  9C 19 D6 FF 00 00 65 18
  can1  156   [8]  71 00 00 00 00 00 00 00
  can1  256   [8]  71 00 00 00 00 00 00 00
  can1  156   [8]  42 00 00 00 00 00 00 00
  can1  256   [8]  42 00 00 00 C8 00 00 00
  can1  156   [8]  9A 00 00 00 00 00 00 00
  can1  256   [8]  9A 19 00 01 E0 01 00 00
  can1  156   [8]  9C 00 00 00 00 00 00 00
  can1  256   [8]  9C 19 31 FF 00 00 51 D8
  can1  159   [8]  71 00 00 00 00 00 00 00
  can1  259   [8]  71 00 00 00 00 00 00 00
  can1  159   [8]  42 00 00 00 00 00 00 00
  can1  259   [8]  42 00 00 00 C8 00 00 00
  can1  159   [8]  9A 00 00 00 00 00 00 00
  can1  259   [8]  9A 19 00 01 DE 01 00 00
  can1  159   [8]  9C 00 00 00 00 00 00 00
  can1  259   [8]  9C 19 AF FF 00 00 36 5A
  can1  157   [8]  9A 00 00 00 00 00 00 00
  can1  257   [8]  9A 19 00 01 DF 01 00 00
  can1  157   [8]  9C 00 00 00 00 00 00 00
  can1  257   [8]  9C 19 11 00 00 00 27 D8
  can1  155   [8]  9A 00 00 00 00 00 00 00
  can1  255   [8]  9A 19 00 01 DF 01 00 00
  can1  155   [8]  9C 00 00 00 00 00 00 00
  can1  255   [8]  9C 19 BB FF 00 00 30 F6
  can1  15A   [8]  9A 00 00 00 00 00 00 00
  can1  25A   [8]  9A 1A 00 01 E1 01 00 00
  can1  15A   [8]  9C 00 00 00 00 00 00 00
  can1  25A   [8]  9C 1A E4 FF 01 00 71 1E
  can1  158   [8]  71 00 00 00 00 00 00 00
  can1  258   [8]  71 00 00 00 00 00 00 00
  can1  158   [8]  42 00 00 00 00 00 00 00
  can1  258   [8]  42 00 00 00 C8 00 00 00
  can1  158   [8]  9A 00 00 00 00 00 00 00
  can1  258   [8]  9A 19 00 01 DF 01 00 00
  can1  158   [8]  9C 00 00 00 00 00 00 00
  can1  258   [8]  9C 19 D8 FF 00 00 65 18
  can1  156   [8]  9A 00 00 00 00 00 00 00
  can1  256   [8]  9A 19 00 01 E0 01 00 00
  can1  156   [8]  9C 00 00 00 00 00 00 00
  can1  256   [8]  9C 19 0D FF 00 00 51 D8
  can1  159   [8]  9A 00 00 00 00 00 00 00
  can1  259   [8]  9A 19 00 01 DD 01 00 00
  can1  159   [8]  9C 00 00 00 00 00 00 00
  can1  259   [8]  9C 19 B7 FF 00 00 36 5A
  can1  157   [8]  9A 00 00 00 00 00 00 00
  can1  257   [8]  9A 19 00 01 DF 01 00 00
  can1  157   [8]  9C 00 00 00 00 00 00 00
  can1  257   [8]  9C 19 1C 00 00 00 27 D8
  can1  155   [8]  9A 00 00 00 00 00 00 00
  can1  255   [8]  9A 19 00 01 DF 01 00 00
  can1  155   [8]  9C 00 00 00 00 00 00 00
  can1  255   [8]  9C 19 BA FF 01 00 30 F6
  can1  15A   [8]  9A 00 00 00 00 00 00 00
  can1  25A   [8]  9A 1A 00 01 E1 01 00 00
  can1  15A   [8]  9C 00 00 00 00 00 00 00
  can1  25A   [8]  9C 1A F0 FF 01 00 71 1E
  can1  158   [8]  9A 00 00 00 00 00 00 00
  can1  258   [8]  9A 19 00 01 DF 01 00 00
  can1  158   [8]  9C 00 00 00 00 00 00 00
  can1  258   [8]  9C 19 D7 FF 00 00 65 18
  can1  156   [8]  9A 00 00 00 00 00 00 00
  can1  256   [8]  9A 19 00 01 E0 01 00 00
  can1  156   [8]  9C 00 00 00 00 00 00 00
  can1  256   [8]  9C 19 47 FF 00 00 51 D8
  can1  159   [8]  9A 00 00 00 00 00 00 00
  can1  259   [8]  9A 19 00 01 DE 01 00 00
  can1  159   [8]  9C 00 00 00 00 00 00 00
  can1  259   [8]  9C 19 BB FF 01 00 36 5A
  can1  157   [8]  9A 00 00 00 00 00 00 00
  can1  257   [8]  9A 19 00 01 DF 01 00 00
  can1  157   [8]  9C 00 00 00 00 00 00 00
  can1  257   [8]  9C 19 0D 00 00 00 27 D8
  can1  155   [8]  9A 00 00 00 00 00 00 00
  can1  255   [8]  9A 19 00 01 DF 01 00 00
  can1  155   [8]  9C 00 00 00 00 00 00 00
  can1  255   [8]  9C 19 AB FF 00 00 30 F6
  can1  15A   [8]  9A 00 00 00 00 00 00 00
  can1  25A   [8]  9A 1A 00 01 E1 01 00 00
  can1  15A   [8]  9C 00 00 00 00 00 00 00
  can1  25A   [8]  9C 1A F5 FF 04 00 71 1E
  can1  158   [8]  9A 00 00 00 00 00 00 00
  can1  258   [8]  9A 19 00 01 DF 01 00 00
  can1  158   [8]  9C 00 00 00 00 00 00 00
  can1  258   [8]  9C 19 D9 FF 00 00 65 18
  can1  156   [8]  9A 00 00 00 00 00 00 00
  can1  256   [8]  9A 19 00 01 E0 01 00 00
  can1  156   [8]  9C 00 00 00 00 00 00 00
  can1  256   [8]  9C 19 3E FF 00 00 50 D8
  can1  159   [8]  9A 00 00 00 00 00 00 00
  can1  259   [8]  9A 19 00 01 DF 01 00 00
  can1  159   [8]  9C 00 00 00 00 00 00 00
  can1  259   [8]  9C 19 B8 FF 00 00 36 5A
  can1  157   [8]  9A 00 00 00 00 00 00 00
  can1  257   [8]  9A 19 00 01 DF 01 00 00
  can1  157   [8]  9C 00 00 00 00 00 00 00
  can1  257   [8]  9C 19 15 00 00 00 27 D8
  can1  155   [8]  9A 00 00 00 00 00 00 00
  can1  255   [8]  9A 19 00 01 DF 01 00 00
  can1  155   [8]  9C 00 00 00 00 00 00 00
  can1  255   [8]  9C 19 B4 FF 00 00 30 F6
  can1  15A   [8]  9A 00 00 00 00 00 00 00
  can1  25A   [8]  9A 1A 00 01 E0 01 00 00
  can1  15A   [8]  9C 00 00 00 00 00 00 00
  can1  25A   [8]  9C 1A D8 FF 00 00 71 1E
  can1  158   [8]  9A 00 00 00 00 00 00 00
  can1  258   [8]  9A 19 00 01 DF 01 00 00
  can1  158   [8]  9C 00 00 00 00 00 00 00
  can1  258   [8]  9C 19 D8 FF 00 00 65 18
  can1  156   [8]  9A 00 00 00 00 00 00 00
  can1  256   [8]  9A 19 00 01 E0 01 00 00
  can1  156   [8]  9C 00 00 00 00 00 00 00
  can1  256   [8]  9C 19 36 FF 00 00 50 D8
  can1  159   [8]  9A 00 00 00 00 00 00 00
  can1  259   [8]  9A 19 00 01 DE 01 00 00
  can1  159   [8]  9C 00 00 00 00 00 00 00
  can1  259   [8]  9C 19 C4 FF 00 00 36 5A
  can1  157   [8]  71 00 00 00 00 00 00 00
  can1  257   [8]  71 00 00 00 00 00 00 00
  can1  157   [8]  42 00 00 00 00 00 00 00
  can1  257   [8]  42 00 00 00 C8 00 00 00
  can1  157   [8]  9A 00 00 00 00 00 00 00
  can1  257   [8]  9A 19 00 01 DF 01 00 00
  can1  157   [8]  9C 00 00 00 00 00 00 00
  can1  257   [8]  9C 19 12 00 00 00 27 D8
  can1  155   [8]  71 00 00 00 00 00 00 00
  can1  255   [8]  71 00 00 00 00 00 00 00
  can1  155   [8]  42 00 00 00 00 00 00 00
  can1  255   [8]  42 00 00 00 10 27 00 00
  can1  155   [8]  9A 00 00 00 00 00 00 00
  can1  255   [8]  9A 19 00 01 DF 01 00 00
  can1  155   [8]  9C 00 00 00 00 00 00 00
  can1  255   [8]  9C 19 BB FF 00 00 30 F6
  can1  15A   [8]  71 00 00 00 00 00 00 00
  can1  25A   [8]  71 00 00 00 00 00 00 00
  can1  15A   [8]  42 00 00 00 00 00 00 00
  can1  25A   [8]  42 00 00 00 C8 00 00 00
  can1  15A   [8]  9A 00 00 00 00 00 00 00
  can1  25A   [8]  9A 1A 00 01 E1 01 00 00
  can1  15A   [8]  9C 00 00 00 00 00 00 00
  can1  25A   [8]  9C 1A 00 00 00 00 71 1E
  can1  158   [8]  9A 00 00 00 00 00 00 00
  can1  258   [8]  9A 19 00 01 DF 01 00 00
  can1  158   [8]  9C 00 00 00 00 00 00 00
  can1  258   [8]  9C 19 D9 FF 00 00 65 18
  can1  156   [8]  71 00 00 00 00 00 00 00
  can1  256   [8]  71 00 00 00 00 00 00 00
  can1  156   [8]  42 00 00 00 00 00 00 00
  can1  256   [8]  42 00 00 00 C8 00 00 00
  can1  156   [8]  9A 00 00 00 00 00 00 00
  can1  256   [8]  9A 19 00 01 E0 01 00 00
  can1  156   [8]  9C 00 00 00 00 00 00 00
  can1  256   [8]  9C 19 39 FF 00 00 50 D8
  can1  159   [8]  71 00 00 00 00 00 00 00
  can1  259   [8]  71 00 00 00 00 00 00 00
  can1  159   [8]  42 00 00 00 00 00 00 00
  can1  259   [8]  42 00 00 00 C8 00 00 00
  can1  159   [8]  9A 00 00 00 00 00 00 00
  can1  259   [8]  9A 19 00 01 DF 01 00 00
  can1  159   [8]  9C 00 00 00 00 00 00 00
  can1  259   [8]  9C 19 B4 FF 00 00 36 5A
  can1  157   [8]  9A 00 00 00 00 00 00 00
  can1  257   [8]  9A 19 00 01 DF 01 00 00
  can1  157   [8]  9C 00 00 00 00 00 00 00
  can1  257   [8]  9C 19 0E 00 00 00 27 D8
  can1  155   [8]  9A 00 00 00 00 00 00 00
  can1  255   [8]  9A 19 00 01 DF 01 00 00
  can1  155   [8]  9C 00 00 00 00 00 00 00
  can1  255   [8]  9C 19 B0 FF 00 00 30 F6
  can1  15A   [8]  9A 00 00 00 00 00 00 00
  can1  25A   [8]  9A 1A 00 01 E1 01 00 00
  can1  15A   [8]  9C 00 00 00 00 00 00 00
  can1  25A   [8]  9C 1A 02 00 00 00 71 1E
  can1  158   [8]  71 00 00 00 00 00 00 00
  can1  258   [8]  71 00 00 00 00 00 00 00
  can1  158   [8]  42 00 00 00 00 00 00 00
  can1  258   [8]  42 00 00 00 C8 00 00 00
  can1  158   [8]  9A 00 00 00 00 00 00 00
  can1  258   [8]  9A 19 00 01 DF 01 00 00
  can1  158   [8]  9C 00 00 00 00 00 00 00
  can1  258   [8]  9C 19 D8 FF 00 00 65 18
  can1  156   [8]  9A 00 00 00 00 00 00 00
  can1  256   [8]  9A 19 00 01 DF 01 00 00
  can1  156   [8]  9C 00 00 00 00 00 00 00
  can1  256   [8]  9C 19 39 FF 00 00 50 D8
  can1  159   [8]  9A 00 00 00 00 00 00 00
  can1  259   [8]  9A 19 00 01 DE 01 00 00
  can1  159   [8]  9C 00 00 00 00 00 00 00
  can1  259   [8]  9C 19 BE FF 02 00 36 5A
  can1  157   [8]  9A 00 00 00 00 00 00 00
  can1  257   [8]  9A 19 00 01 DF 01 00 00
  can1  157   [8]  9C 00 00 00 00 00 00 00
  can1  257   [8]  9C 19 08 00 00 00 27 D8
  can1  155   [8]  9A 00 00 00 00 00 00 00
  can1  255   [8]  9A 19 00 01 DF 01 00 00
  can1  155   [8]  9C 00 00 00 00 00 00 00
  can1  255   [8]  9C 19 B2 FF 00 00 30 F6
  can1  15A   [8]  9A 00 00 00 00 00 00 00
  can1  25A   [8]  9A 1A 00 01 E0 01 00 00
  can1  15A   [8]  9C 00 00 00 00 00 00 00
  can1  25A   [8]  9C 1A E1 FF 00 00 71 1E
  can1  158   [8]  9A 00 00 00 00 00 00 00
  can1  258   [8]  9A 19 00 01 E0 01 00 00
  can1  158   [8]  9C 00 00 00 00 00 00 00
  can1  258   [8]  9C 19 D8 FF 00 00 65 18
  can1  156   [8]  9A 00 00 00 00 00 00 00
  can1  256   [8]  9A 19 00 01 E0 01 00 00
  can1  156   [8]  9C 00 00 00 00 00 00 00
  can1  256   [8]  9C 19 2C FF 00 00 50 D8
  can1  159   [8]  9A 00 00 00 00 00 00 00
  can1  259   [8]  9A 19 00 01 DE 01 00 00
  can1  159   [8]  9C 00 00 00 00 00 00 00
  can1  259   [8]  9C 19 B7 FF 00 00 36 5A
  can1  157   [8]  9A 00 00 00 00 00 00 00
  can1  257   [8]  9A 19 00 01 DF 01 00 00
  can1  157   [8]  9C 00 00 00 00 00 00 00
  can1  257   [8]  9C 19 11 00 00 00 27 D8
  can1  155   [8]  9A 00 00 00 00 00 00 00
  can1  255   [8]  9A 19 00 01 DF 01 00 00
  can1  155   [8]  9C 00 00 00 00 00 00 00
  can1  255   [8]  9C 19 BB FF 00 00 30 F6
  can1  15A   [8]  9A 00 00 00 00 00 00 00
  can1  25A   [8]  9A 1A 00 01 E2 01 00 00
  can1  15A   [8]  9C 00 00 00 00 00 00 00
  can1  25A   [8]  9C 1A F7 FF FF FF 71 1E
  can1  158   [8]  9A 00 00 00 00 00 00 00
  can1  258   [8]  9A 19 00 01 DF 01 00 00
  can1  158   [8]  9C 00 00 00 00 00 00 00
  can1  258   [8]  9C 19 D8 FF 00 00 65 18
  can1  156   [8]  9A 00 00 00 00 00 00 00
  can1  256   [8]  9A 19 00 01 E0 01 00 00
  can1  156   [8]  9C 00 00 00 00 00 00 00
  can1  256   [8]  9C 19 29 FF 00 00 50 D8
  can1  159   [8]  9A 00 00 00 00 00 00 00
  can1  259   [8]  9A 19 00 01 DE 01 00 00
  can1  159   [8]  9C 00 00 00 00 00 00 00
  can1  259   [8]  9C 19 BF FF 00 00 36 5A
  can1  157   [8]  9A 00 00 00 00 00 00 00
  can1  257   [8]  9A 19 00 01 DE 01 00 00
  can1  157   [8]  9C 00 00 00 00 00 00 00
  can1  257   [8]  9C 19 06 00 02 00 27 D8
  can1  155   [8]  9A 00 00 00 00 00 00 00
  can1  255   [8]  9A 19 00 01 DF 01 00 00
  can1  155   [8]  9C 00 00 00 00 00 00 00
  can1  255   [8]  9C 19 B2 FF 00 00 30 F6
  can1  15A   [8]  9A 00 00 00 00 00 00 00
  can1  25A   [8]  9A 1A 00 01 E0 01 00 00
  can1  15A   [8]  9C 00 00 00 00 00 00 00
  can1  25A   [8]  9C 1A EB FF FD FF 71 1E
  can1  158   [8]  9A 00 00 00 00 00 00 00
  can1  258   [8]  9A 19 00 01 DF 01 00 00
  can1  158   [8]  9C 00 00 00 00 00 00 00
  can1  258   [8]  9C 19 D8 FF 00 00 65 18
  can1  156   [8]  9A 00 00 00 00 00 00 00
  can1  256   [8]  9A 19 00 01 DF 01 00 00
  can1  156   [8]  9C 00 00 00 00 00 00 00
  can1  256   [8]  9C 19 2C FF 00 00 50 D8
  can1  159   [8]  9A 00 00 00 00 00 00 00
  can1  259   [8]  9A 19 00 01 DE 01 00 00
  can1  159   [8]  9C 00 00 00 00 00 00 00
  can1  259   [8]  9C 19 B0 FF 00 00 36 5A
  can1  157   [8]  71 00 00 00 00 00 00 00
  can1  257   [8]  71 00 00 00 00 00 00 00
  can1  157   [8]  42 00 00 00 00 00 00 00
  can1  257   [8]  42 00 00 00 C8 00 00 00
  can1  157   [8]  9A 00 00 00 00 00 00 00
  can1  257   [8]  9A 19 00 01 DF 01 00 00
  can1  157   [8]  9C 00 00 00 00 00 00 00
  can1  257   [8]  9C 19 10 00 00 00 27 D8
  can1  155   [8]  71 00 00 00 00 00 00 00
  can1  255   [8]  71 00 00 00 00 00 00 00
  can1  155   [8]  42 00 00 00 00 00 00 00
  can1  255   [8]  42 00 00 00 10 27 00 00
  can1  155   [8]  9A 00 00 00 00 00 00 00
  can1  255   [8]  9A 19 00 01 E0 01 00 00
  can1  155   [8]  9C 00 00 00 00 00 00 00
  can1  255   [8]  9C 19 A3 FF 00 00 30 F6
  can1  158   [8]  9A 00 00 00 00 00 00 00
  can1  258   [8]  9A 19 00 01 DF 01 00 00
  can1  158   [8]  9C 00 00 00 00 00 00 00
  can1  258   [8]  9C 19 D9 FF 00 00 65 18
  can1  15A   [8]  71 00 00 00 00 00 00 00
  can1  25A   [8]  71 00 00 00 00 00 00 00
  can1  15A   [8]  42 00 00 00 00 00 00 00
  can1  25A   [8]  42 00 00 00 C8 00 00 00
  can1  15A   [8]  9A 00 00 00 00 00 00 00
  can1  25A   [8]  9A 1A 00 01 E1 01 00 00
  can1  15A   [8]  9C 00 00 00 00 00 00 00
  can1  25A   [8]  9C 1A F4 FF 00 00 71 1E
  can1  156   [8]  71 00 00 00 00 00 00 00
  can1  256   [8]  71 00 00 00 00 00 00 00
  can1  156   [8]  42 00 00 00 00 00 00 00
  can1  256   [8]  42 00 00 00 C8 00 00 00
  can1  156   [8]  9A 00 00 00 00 00 00 00
  can1  256   [8]  9A 19 00 01 E0 01 00 00
  can1  156   [8]  9C 00 00 00 00 00 00 00
  can1  256   [8]  9C 19 2F FF 00 00 50 D8
  can1  159   [8]  71 00 00 00 00 00 00 00
  can1  259   [8]  71 00 00 00 00 00 00 00
  can1  159   [8]  42 00 00 00 00 00 00 00
  can1  259   [8]  42 00 00 00 C8 00 00 00
  can1  159   [8]  9A 00 00 00 00 00 00 00
  can1  259   [8]  9A 19 00 01 DE 01 00 00
  can1  159   [8]  9C 00 00 00 00 00 00 00
  can1  259   [8]  9C 19 B1 FF 00 00 36 5A
  can1  157   [8]  9A 00 00 00 00 00 00 00
  can1  257   [8]  9A 19 00 01 DF 01 00 00
  can1  157   [8]  9C 00 00 00 00 00 00 00
  can1  257   [8]  9C 19 FB FF 00 00 27 D8
  can1  155   [8]  9A 00 00 00 00 00 00 00
  can1  255   [8]  9A 19 00 01 DF 01 00 00
  can1  155   [8]  9C 00 00 00 00 00 00 00
  can1  255   [8]  9C 19 B8 FF 00 00 30 F6
  can1  15A   [8]  9A 00 00 00 00 00 00 00
  can1  25A   [8]  9A 1A 00 01 E1 01 00 00
  can1  15A   [8]  9C 00 00 00 00 00 00 00
  can1  25A   [8]  9C 1A E6 FF 00 00 71 1E
  can1  158   [8]  71 00 00 00 00 00 00 00
  can1  258   [8]  71 00 00 00 00 00 00 00
  can1  158   [8]  42 00 00 00 00 00 00 00
  can1  258   [8]  42 00 00 00 C8 00 00 00
  can1  158   [8]  9A 00 00 00 00 00 00 00
  can1  258   [8]  9A 19 00 01 DF 01 00 00
  can1  158   [8]  9C 00 00 00 00 00 00 00
  can1  258   [8]  9C 19 D6 FF 00 00 65 18
  can1  156   [8]  9A 00 00 00 00 00 00 00
  can1  256   [8]  9A 19 00 01 E0 01 00 00
  can1  156   [8]  9C 00 00 00 00 00 00 00
  can1  256   [8]  9C 19 2D FF 00 00 50 D8
  can1  159   [8]  9A 00 00 00 00 00 00 00
  can1  259   [8]  9A 19 00 01 DF 01 00 00
  can1  159   [8]  9C 00 00 00 00 00 00 00
  can1  259   [8]  9C 19 BE FF 00 00 36 5A
  can1  157   [8]  9A 00 00 00 00 00 00 00
  can1  257   [8]  9A 19 00 01 DF 01 00 00
  can1  157   [8]  9C 00 00 00 00 00 00 00
  can1  257   [8]  9C 19 18 00 FF FF 27 D8
  can1  155   [8]  9A 00 00 00 00 00 00 00
  can1  255   [8]  9A 19 00 01 DF 01 00 00
  can1  155   [8]  9C 00 00 00 00 00 00 00
  can1  255   [8]  9C 19 9B FF 00 00 30 F6
  can1  15A   [8]  9A 00 00 00 00 00 00 00
  can1  25A   [8]  9A 1A 00 01 E1 01 00 00
  can1  15A   [8]  9C 00 00 00 00 00 00 00
  can1  25A   [8]  9C 1A F4 FF FD FF 71 1E
  can1  158   [8]  9A 00 00 00 00 00 00 00
  can1  258   [8]  9A 19 00 01 DF 01 00 00
  can1  158   [8]  9C 00 00 00 00 00 00 00
  can1  258   [8]  9C 19 D9 FF 00 00 65 18
  can1  156   [8]  9A 00 00 00 00 00 00 00
  can1  256   [8]  9A 19 00 01 E0 01 00 00
  can1  156   [8]  9C 00 00 00 00 00 00 00
  can1  256   [8]  9C 19 2B FF 00 00 50 D8
  can1  159   [8]  9A 00 00 00 00 00 00 00
  can1  259   [8]  9A 19 00 01 DE 01 00 00
  can1  157   [8]  9A 00 00 00 00 00 00 00
  can1  257   [8]  9A 19 00 01 CB 01 00 00
  can1  155   [8]  9A 00 00 00 00 00 00 00
  can1  155   [8]  9C 00 00 00 00 00 00 00
  can1  255   [8]  9C 19 AA FF 00 00 30 F6
  can1  15A   [8]  9A 00 00 00 00 00 00 00
  can1  25A   [8]  9A 1A 00 01 A4 01 00 00
  can1  159   [8]  80 00 00 00 00 00 00 00
  can1  158   [8]  9A 00 00 00 00 00 00 00
  can1  258   [8]  9A 19 00 01 93 01 00 00
  can1  158   [8]  9C 00 00 00 00 00 00 00
  can1  258   [8]  9C 19 D9 FF 00 00 65 18
